Command: vcs -full64 -sverilog -R -debug_access+all -ntb_opts uvm-1.2 axi4_lite_top.sv \
-l debug.log -kdb -cm line+tgl+assert+cond+fsm+branch
                         Chronologic VCS (TM)
         Version W-2024.09_Full64 -- Thu Jun  4 15:15:09 2026

                    Copyright (c) 1991 - 2024 Synopsys, Inc.
   This software and the associated documentation are proprietary to Synopsys,
 Inc. This software may only be used in accordance with the terms and conditions
 of a written license agreement with Synopsys, Inc. All other use, reproduction,
   or distribution of this software is strictly prohibited.  Licensed Products
     communicate with Synopsys servers for the purpose of providing software
    updates, detecting software piracy and verifying that customers are using
    Licensed Products in conformity with the applicable License Key for such
  Licensed Products. Synopsys will use information gathered in connection with
    this process to deliver software updates and pursue software pirates and
                                   infringers.

 Inclusivity & Diversity - Visit SolvNetPlus to read the "Synopsys Statement on
            Inclusivity and Diversity" (Refer to article 000036315 at
                        https://solvnetplus.synopsys.com)

Parsing design file '/app/synopsys/installers/vcs/W-2024.09//etc/uvm-1.2/uvm_pkg.sv'
Parsing included file '/app/synopsys/installers/vcs/W-2024.09//etc/uvm-1.2/uvm_macros.svh'.
Parsing included file '/app/synopsys/installers/vcs/W-2024.09//etc/uvm-1.2/macros/uvm_version_defines.svh'.
Back to file '/app/synopsys/installers/vcs/W-2024.09//etc/uvm-1.2/uvm_macros.svh'.
Parsing included file '/app/synopsys/installers/vcs/W-2024.09//etc/uvm-1.2/macros/uvm_global_defines.svh'.
Back to file '/app/synopsys/installers/vcs/W-2024.09//etc/uvm-1.2/uvm_macros.svh'.
Parsing included file '/app/synopsys/installers/vcs/W-2024.09//etc/uvm-1.2/macros/snps_macros.svp'.
Back to file '/app/synopsys/installers/vcs/W-2024.09//etc/uvm-1.2/uvm_macros.svh'.
Parsing included file '/app/synopsys/installers/vcs/W-2024.09//etc/uvm-1.2/macros/uvm_message_defines.svh'.
Back to file '/app/synopsys/installers/vcs/W-2024.09//etc/uvm-1.2/uvm_macros.svh'.
Parsing included file '/app/synopsys/installers/vcs/W-2024.09//etc/uvm-1.2/macros/uvm_phase_defines.svh'.
Back to file '/app/synopsys/installers/vcs/W-2024.09//etc/uvm-1.2/uvm_macros.svh'.
Parsing included file '/app/synopsys/installers/vcs/W-2024.09//etc/uvm-1.2/macros/uvm_object_defines.svh'.
Back to file '/app/synopsys/installers/vcs/W-2024.09//etc/uvm-1.2/uvm_macros.svh'.
Parsing included file '/app/synopsys/installers/vcs/W-2024.09//etc/uvm-1.2/macros/uvm_printer_defines.svh'.
Back to file '/app/synopsys/installers/vcs/W-2024.09//etc/uvm-1.2/uvm_macros.svh'.
Parsing included file '/app/synopsys/installers/vcs/W-2024.09//etc/uvm-1.2/macros/uvm_tlm_defines.svh'.
Parsing included file '/app/synopsys/installers/vcs/W-2024.09//etc/uvm-1.2/tlm1/uvm_tlm_imps.svh'.
Back to file '/app/synopsys/installers/vcs/W-2024.09//etc/uvm-1.2/macros/uvm_tlm_defines.svh'.
Back to file '/app/synopsys/installers/vcs/W-2024.09//etc/uvm-1.2/uvm_macros.svh'.
Parsing included file '/app/synopsys/installers/vcs/W-2024.09//etc/uvm-1.2/macros/uvm_sequence_defines.svh'.
Back to file '/app/synopsys/installers/vcs/W-2024.09//etc/uvm-1.2/uvm_macros.svh'.
Parsing included file '/app/synopsys/installers/vcs/W-2024.09//etc/uvm-1.2/macros/uvm_callback_defines.svh'.
Back to file '/app/synopsys/installers/vcs/W-2024.09//etc/uvm-1.2/uvm_macros.svh'.
Parsing included file '/app/synopsys/installers/vcs/W-2024.09//etc/uvm-1.2/macros/uvm_reg_defines.svh'.
Back to file '/app/synopsys/installers/vcs/W-2024.09//etc/uvm-1.2/uvm_macros.svh'.
Parsing included file '/app/synopsys/installers/vcs/W-2024.09//etc/uvm-1.2/macros/uvm_deprecated_defines.svh'.
Back to file '/app/synopsys/installers/vcs/W-2024.09//etc/uvm-1.2/uvm_macros.svh'.
Back to file '/app/synopsys/installers/vcs/W-2024.09//etc/uvm-1.2/uvm_pkg.sv'.
Parsing included file '/app/synopsys/installers/vcs/W-2024.09//etc/uvm-1.2/dpi/uvm_dpi.svh'.
Parsing included file '/app/synopsys/installers/vcs/W-2024.09//etc/uvm-1.2/dpi/uvm_hdl.svh'.
Back to file '/app/synopsys/installers/vcs/W-2024.09//etc/uvm-1.2/dpi/uvm_dpi.svh'.
Parsing included file '/app/synopsys/installers/vcs/W-2024.09//etc/uvm-1.2/dpi/uvm_svcmd_dpi.svh'.
Back to file '/app/synopsys/installers/vcs/W-2024.09//etc/uvm-1.2/dpi/uvm_dpi.svh'.
Parsing included file '/app/synopsys/installers/vcs/W-2024.09//etc/uvm-1.2/dpi/uvm_regex.svh'.
Back to file '/app/synopsys/installers/vcs/W-2024.09//etc/uvm-1.2/dpi/uvm_dpi.svh'.
Back to file '/app/synopsys/installers/vcs/W-2024.09//etc/uvm-1.2/uvm_pkg.sv'.
Parsing included file '/app/synopsys/installers/vcs/W-2024.09//etc/uvm-1.2/base/uvm_base.svh'.
Parsing included file '/app/synopsys/installers/vcs/W-2024.09//etc/uvm-1.2/base/uvm_coreservice.svh'.
Back to file '/app/synopsys/installers/vcs/W-2024.09//etc/uvm-1.2/base/uvm_base.svh'.
Parsing included file '/app/synopsys/installers/vcs/W-2024.09//etc/uvm-1.2/base/uvm_version.svh'.
Back to file '/app/synopsys/installers/vcs/W-2024.09//etc/uvm-1.2/base/uvm_base.svh'.
Parsing included file '/app/synopsys/installers/vcs/W-2024.09//etc/uvm-1.2/base/uvm_object_globals.svh'.
Back to file '/app/synopsys/installers/vcs/W-2024.09//etc/uvm-1.2/base/uvm_base.svh'.
Parsing included file '/app/synopsys/installers/vcs/W-2024.09//etc/uvm-1.2/base/uvm_misc.svh'.
Back to file '/app/synopsys/installers/vcs/W-2024.09//etc/uvm-1.2/base/uvm_base.svh'.
Parsing included file '/app/synopsys/installers/vcs/W-2024.09//etc/uvm-1.2/base/uvm_object.svh'.
Back to file '/app/synopsys/installers/vcs/W-2024.09//etc/uvm-1.2/base/uvm_base.svh'.
Parsing included file '/app/synopsys/installers/vcs/W-2024.09//etc/uvm-1.2/base/uvm_pool.svh'.
Back to file '/app/synopsys/installers/vcs/W-2024.09//etc/uvm-1.2/base/uvm_base.svh'.
Parsing included file '/app/synopsys/installers/vcs/W-2024.09//etc/uvm-1.2/base/uvm_queue.svh'.
Back to file '/app/synopsys/installers/vcs/W-2024.09//etc/uvm-1.2/base/uvm_base.svh'.
Parsing included file '/app/synopsys/installers/vcs/W-2024.09//etc/uvm-1.2/base/uvm_factory.svh'.
Back to file '/app/synopsys/installers/vcs/W-2024.09//etc/uvm-1.2/base/uvm_base.svh'.
Parsing included file '/app/synopsys/installers/vcs/W-2024.09//etc/uvm-1.2/base/uvm_registry.svh'.
Back to file '/app/synopsys/installers/vcs/W-2024.09//etc/uvm-1.2/base/uvm_base.svh'.
Parsing included file '/app/synopsys/installers/vcs/W-2024.09//etc/uvm-1.2/base/uvm_spell_chkr.svh'.
Back to file '/app/synopsys/installers/vcs/W-2024.09//etc/uvm-1.2/base/uvm_base.svh'.
Parsing included file '/app/synopsys/installers/vcs/W-2024.09//etc/uvm-1.2/base/uvm_resource.svh'.
Back to file '/app/synopsys/installers/vcs/W-2024.09//etc/uvm-1.2/base/uvm_base.svh'.
Parsing included file '/app/synopsys/installers/vcs/W-2024.09//etc/uvm-1.2/base/uvm_resource_specializations.svh'.
Back to file '/app/synopsys/installers/vcs/W-2024.09//etc/uvm-1.2/base/uvm_base.svh'.
Parsing included file '/app/synopsys/installers/vcs/W-2024.09//etc/uvm-1.2/base/uvm_resource_db.svh'.
Back to file '/app/synopsys/installers/vcs/W-2024.09//etc/uvm-1.2/base/uvm_base.svh'.
Parsing included file '/app/synopsys/installers/vcs/W-2024.09//etc/uvm-1.2/base/uvm_config_db.svh'.
Back to file '/app/synopsys/installers/vcs/W-2024.09//etc/uvm-1.2/base/uvm_base.svh'.
Parsing included file '/app/synopsys/installers/vcs/W-2024.09//etc/uvm-1.2/base/uvm_printer.svh'.
Back to file '/app/synopsys/installers/vcs/W-2024.09//etc/uvm-1.2/base/uvm_base.svh'.
Parsing included file '/app/synopsys/installers/vcs/W-2024.09//etc/uvm-1.2/base/uvm_comparer.svh'.
Back to file '/app/synopsys/installers/vcs/W-2024.09//etc/uvm-1.2/base/uvm_base.svh'.
Parsing included file '/app/synopsys/installers/vcs/W-2024.09//etc/uvm-1.2/base/uvm_packer.svh'.
Back to file '/app/synopsys/installers/vcs/W-2024.09//etc/uvm-1.2/base/uvm_base.svh'.
Parsing included file '/app/synopsys/installers/vcs/W-2024.09//etc/uvm-1.2/base/uvm_links.svh'.
Back to file '/app/synopsys/installers/vcs/W-2024.09//etc/uvm-1.2/base/uvm_base.svh'.
Parsing included file '/app/synopsys/installers/vcs/W-2024.09//etc/uvm-1.2/base/uvm_tr_database.svh'.
Back to file '/app/synopsys/installers/vcs/W-2024.09//etc/uvm-1.2/base/uvm_base.svh'.
Parsing included file '/app/synopsys/installers/vcs/W-2024.09//etc/uvm-1.2/base/uvm_tr_stream.svh'.
Back to file '/app/synopsys/installers/vcs/W-2024.09//etc/uvm-1.2/base/uvm_base.svh'.
Parsing included file '/app/synopsys/installers/vcs/W-2024.09//etc/uvm-1.2/base/uvm_recorder.svh'.
Back to file '/app/synopsys/installers/vcs/W-2024.09//etc/uvm-1.2/base/uvm_base.svh'.
Parsing included file '/app/synopsys/installers/vcs/W-2024.09//etc/uvm-1.2/base/uvm_event_callback.svh'.
Back to file '/app/synopsys/installers/vcs/W-2024.09//etc/uvm-1.2/base/uvm_base.svh'.
Parsing included file '/app/synopsys/installers/vcs/W-2024.09//etc/uvm-1.2/base/uvm_event.svh'.
Back to file '/app/synopsys/installers/vcs/W-2024.09//etc/uvm-1.2/base/uvm_base.svh'.
Parsing included file '/app/synopsys/installers/vcs/W-2024.09//etc/uvm-1.2/base/uvm_barrier.svh'.
Back to file '/app/synopsys/installers/vcs/W-2024.09//etc/uvm-1.2/base/uvm_base.svh'.
Parsing included file '/app/synopsys/installers/vcs/W-2024.09//etc/uvm-1.2/base/uvm_callback.svh'.
Parsing included file '/app/synopsys/installers/vcs/W-2024.09//etc/uvm-1.2/uvm_macros.svh'.
Back to file '/app/synopsys/installers/vcs/W-2024.09//etc/uvm-1.2/base/uvm_callback.svh'.
Back to file '/app/synopsys/installers/vcs/W-2024.09//etc/uvm-1.2/base/uvm_base.svh'.
Parsing included file '/app/synopsys/installers/vcs/W-2024.09//etc/uvm-1.2/base/uvm_report_message.svh'.
Back to file '/app/synopsys/installers/vcs/W-2024.09//etc/uvm-1.2/base/uvm_base.svh'.
Parsing included file '/app/synopsys/installers/vcs/W-2024.09//etc/uvm-1.2/base/uvm_report_catcher.svh'.
Back to file '/app/synopsys/installers/vcs/W-2024.09//etc/uvm-1.2/base/uvm_base.svh'.
Parsing included file '/app/synopsys/installers/vcs/W-2024.09//etc/uvm-1.2/base/uvm_report_server.svh'.
Back to file '/app/synopsys/installers/vcs/W-2024.09//etc/uvm-1.2/base/uvm_base.svh'.
Parsing included file '/app/synopsys/installers/vcs/W-2024.09//etc/uvm-1.2/base/uvm_report_handler.svh'.
Back to file '/app/synopsys/installers/vcs/W-2024.09//etc/uvm-1.2/base/uvm_base.svh'.
Parsing included file '/app/synopsys/installers/vcs/W-2024.09//etc/uvm-1.2/base/uvm_report_object.svh'.
Back to file '/app/synopsys/installers/vcs/W-2024.09//etc/uvm-1.2/base/uvm_base.svh'.
Parsing included file '/app/synopsys/installers/vcs/W-2024.09//etc/uvm-1.2/base/uvm_transaction.svh'.
Back to file '/app/synopsys/installers/vcs/W-2024.09//etc/uvm-1.2/base/uvm_base.svh'.
Parsing included file '/app/synopsys/installers/vcs/W-2024.09//etc/uvm-1.2/base/uvm_phase.svh'.
Back to file '/app/synopsys/installers/vcs/W-2024.09//etc/uvm-1.2/base/uvm_base.svh'.
Parsing included file '/app/synopsys/installers/vcs/W-2024.09//etc/uvm-1.2/base/uvm_domain.svh'.
Back to file '/app/synopsys/installers/vcs/W-2024.09//etc/uvm-1.2/base/uvm_base.svh'.
Parsing included file '/app/synopsys/installers/vcs/W-2024.09//etc/uvm-1.2/base/uvm_bottomup_phase.svh'.
Back to file '/app/synopsys/installers/vcs/W-2024.09//etc/uvm-1.2/base/uvm_base.svh'.
Parsing included file '/app/synopsys/installers/vcs/W-2024.09//etc/uvm-1.2/base/uvm_topdown_phase.svh'.
Back to file '/app/synopsys/installers/vcs/W-2024.09//etc/uvm-1.2/base/uvm_base.svh'.
Parsing included file '/app/synopsys/installers/vcs/W-2024.09//etc/uvm-1.2/base/uvm_task_phase.svh'.
Back to file '/app/synopsys/installers/vcs/W-2024.09//etc/uvm-1.2/base/uvm_base.svh'.
Parsing included file '/app/synopsys/installers/vcs/W-2024.09//etc/uvm-1.2/base/uvm_common_phases.svh'.
Back to file '/app/synopsys/installers/vcs/W-2024.09//etc/uvm-1.2/base/uvm_base.svh'.
Parsing included file '/app/synopsys/installers/vcs/W-2024.09//etc/uvm-1.2/base/uvm_runtime_phases.svh'.
Back to file '/app/synopsys/installers/vcs/W-2024.09//etc/uvm-1.2/base/uvm_base.svh'.
Parsing included file '/app/synopsys/installers/vcs/W-2024.09//etc/uvm-1.2/base/uvm_component.svh'.
Parsing included file '/app/synopsys/installers/vcs/W-2024.09//etc/uvm-1.2/base/uvm_root.svh'.
Back to file '/app/synopsys/installers/vcs/W-2024.09//etc/uvm-1.2/base/uvm_component.svh'.
Back to file '/app/synopsys/installers/vcs/W-2024.09//etc/uvm-1.2/base/uvm_base.svh'.
Parsing included file '/app/synopsys/installers/vcs/W-2024.09//etc/uvm-1.2/base/uvm_objection.svh'.
Back to file '/app/synopsys/installers/vcs/W-2024.09//etc/uvm-1.2/base/uvm_base.svh'.
Parsing included file '/app/synopsys/installers/vcs/W-2024.09//etc/uvm-1.2/base/uvm_heartbeat.svh'.
Back to file '/app/synopsys/installers/vcs/W-2024.09//etc/uvm-1.2/base/uvm_base.svh'.
Parsing included file '/app/synopsys/installers/vcs/W-2024.09//etc/uvm-1.2/base/uvm_globals.svh'.
Back to file '/app/synopsys/installers/vcs/W-2024.09//etc/uvm-1.2/base/uvm_base.svh'.
Parsing included file '/app/synopsys/installers/vcs/W-2024.09//etc/uvm-1.2/base/uvm_cmdline_processor.svh'.
Back to file '/app/synopsys/installers/vcs/W-2024.09//etc/uvm-1.2/base/uvm_base.svh'.
Parsing included file '/app/synopsys/installers/vcs/W-2024.09//etc/uvm-1.2/base/uvm_traversal.svh'.
Back to file '/app/synopsys/installers/vcs/W-2024.09//etc/uvm-1.2/base/uvm_base.svh'.
Back to file '/app/synopsys/installers/vcs/W-2024.09//etc/uvm-1.2/uvm_pkg.sv'.
Parsing included file '/app/synopsys/installers/vcs/W-2024.09//etc/uvm-1.2/dap/uvm_dap.svh'.
Parsing included file '/app/synopsys/installers/vcs/W-2024.09//etc/uvm-1.2/dap/uvm_set_get_dap_base.svh'.
Back to file '/app/synopsys/installers/vcs/W-2024.09//etc/uvm-1.2/dap/uvm_dap.svh'.
Parsing included file '/app/synopsys/installers/vcs/W-2024.09//etc/uvm-1.2/dap/uvm_simple_lock_dap.svh'.
Back to file '/app/synopsys/installers/vcs/W-2024.09//etc/uvm-1.2/dap/uvm_dap.svh'.
Parsing included file '/app/synopsys/installers/vcs/W-2024.09//etc/uvm-1.2/dap/uvm_get_to_lock_dap.svh'.
Back to file '/app/synopsys/installers/vcs/W-2024.09//etc/uvm-1.2/dap/uvm_dap.svh'.
Parsing included file '/app/synopsys/installers/vcs/W-2024.09//etc/uvm-1.2/dap/uvm_set_before_get_dap.svh'.
Back to file '/app/synopsys/installers/vcs/W-2024.09//etc/uvm-1.2/dap/uvm_dap.svh'.
Back to file '/app/synopsys/installers/vcs/W-2024.09//etc/uvm-1.2/uvm_pkg.sv'.
Parsing included file '/app/synopsys/installers/vcs/W-2024.09//etc/uvm-1.2/tlm1/uvm_tlm.svh'.
Parsing included file '/app/synopsys/installers/vcs/W-2024.09//etc/uvm-1.2/tlm1/uvm_tlm_ifs.svh'.
Back to file '/app/synopsys/installers/vcs/W-2024.09//etc/uvm-1.2/tlm1/uvm_tlm.svh'.
Parsing included file '/app/synopsys/installers/vcs/W-2024.09//etc/uvm-1.2/tlm1/uvm_sqr_ifs.svh'.
Back to file '/app/synopsys/installers/vcs/W-2024.09//etc/uvm-1.2/tlm1/uvm_tlm.svh'.
Parsing included file '/app/synopsys/installers/vcs/W-2024.09//etc/uvm-1.2/base/uvm_port_base.svh'.
Back to file '/app/synopsys/installers/vcs/W-2024.09//etc/uvm-1.2/tlm1/uvm_tlm.svh'.
Parsing included file '/app/synopsys/installers/vcs/W-2024.09//etc/uvm-1.2/tlm1/uvm_tlm_imps.svh'.
Back to file '/app/synopsys/installers/vcs/W-2024.09//etc/uvm-1.2/tlm1/uvm_tlm.svh'.
Parsing included file '/app/synopsys/installers/vcs/W-2024.09//etc/uvm-1.2/tlm1/uvm_imps.svh'.
Back to file '/app/synopsys/installers/vcs/W-2024.09//etc/uvm-1.2/tlm1/uvm_tlm.svh'.
Parsing included file '/app/synopsys/installers/vcs/W-2024.09//etc/uvm-1.2/tlm1/uvm_ports.svh'.
Back to file '/app/synopsys/installers/vcs/W-2024.09//etc/uvm-1.2/tlm1/uvm_tlm.svh'.
Parsing included file '/app/synopsys/installers/vcs/W-2024.09//etc/uvm-1.2/tlm1/uvm_exports.svh'.
Back to file '/app/synopsys/installers/vcs/W-2024.09//etc/uvm-1.2/tlm1/uvm_tlm.svh'.
Parsing included file '/app/synopsys/installers/vcs/W-2024.09//etc/uvm-1.2/tlm1/uvm_analysis_port.svh'.
Back to file '/app/synopsys/installers/vcs/W-2024.09//etc/uvm-1.2/tlm1/uvm_tlm.svh'.
Parsing included file '/app/synopsys/installers/vcs/W-2024.09//etc/uvm-1.2/tlm1/uvm_tlm_fifo_base.svh'.
Back to file '/app/synopsys/installers/vcs/W-2024.09//etc/uvm-1.2/tlm1/uvm_tlm.svh'.
Parsing included file '/app/synopsys/installers/vcs/W-2024.09//etc/uvm-1.2/tlm1/uvm_tlm_fifos.svh'.
Back to file '/app/synopsys/installers/vcs/W-2024.09//etc/uvm-1.2/tlm1/uvm_tlm.svh'.
Parsing included file '/app/synopsys/installers/vcs/W-2024.09//etc/uvm-1.2/tlm1/uvm_tlm_req_rsp.svh'.
Back to file '/app/synopsys/installers/vcs/W-2024.09//etc/uvm-1.2/tlm1/uvm_tlm.svh'.
Parsing included file '/app/synopsys/installers/vcs/W-2024.09//etc/uvm-1.2/tlm1/uvm_sqr_connections.svh'.
Back to file '/app/synopsys/installers/vcs/W-2024.09//etc/uvm-1.2/tlm1/uvm_tlm.svh'.
Back to file '/app/synopsys/installers/vcs/W-2024.09//etc/uvm-1.2/uvm_pkg.sv'.
Parsing included file '/app/synopsys/installers/vcs/W-2024.09//etc/uvm-1.2/comps/uvm_comps.svh'.
Parsing included file '/app/synopsys/installers/vcs/W-2024.09//etc/uvm-1.2/comps/uvm_pair.svh'.
Back to file '/app/synopsys/installers/vcs/W-2024.09//etc/uvm-1.2/comps/uvm_comps.svh'.
Parsing included file '/app/synopsys/installers/vcs/W-2024.09//etc/uvm-1.2/comps/uvm_policies.svh'.
Back to file '/app/synopsys/installers/vcs/W-2024.09//etc/uvm-1.2/comps/uvm_comps.svh'.
Parsing included file '/app/synopsys/installers/vcs/W-2024.09//etc/uvm-1.2/comps/uvm_in_order_comparator.svh'.
Back to file '/app/synopsys/installers/vcs/W-2024.09//etc/uvm-1.2/comps/uvm_comps.svh'.
Parsing included file '/app/synopsys/installers/vcs/W-2024.09//etc/uvm-1.2/comps/uvm_algorithmic_comparator.svh'.
Back to file '/app/synopsys/installers/vcs/W-2024.09//etc/uvm-1.2/comps/uvm_comps.svh'.
Parsing included file '/app/synopsys/installers/vcs/W-2024.09//etc/uvm-1.2/comps/uvm_random_stimulus.svh'.
Back to file '/app/synopsys/installers/vcs/W-2024.09//etc/uvm-1.2/comps/uvm_comps.svh'.
Parsing included file '/app/synopsys/installers/vcs/W-2024.09//etc/uvm-1.2/comps/uvm_subscriber.svh'.
Back to file '/app/synopsys/installers/vcs/W-2024.09//etc/uvm-1.2/comps/uvm_comps.svh'.
Parsing included file '/app/synopsys/installers/vcs/W-2024.09//etc/uvm-1.2/comps/uvm_monitor.svh'.
Back to file '/app/synopsys/installers/vcs/W-2024.09//etc/uvm-1.2/comps/uvm_comps.svh'.
Parsing included file '/app/synopsys/installers/vcs/W-2024.09//etc/uvm-1.2/comps/uvm_driver.svh'.
Back to file '/app/synopsys/installers/vcs/W-2024.09//etc/uvm-1.2/comps/uvm_comps.svh'.
Parsing included file '/app/synopsys/installers/vcs/W-2024.09//etc/uvm-1.2/comps/uvm_push_driver.svh'.
Back to file '/app/synopsys/installers/vcs/W-2024.09//etc/uvm-1.2/comps/uvm_comps.svh'.
Parsing included file '/app/synopsys/installers/vcs/W-2024.09//etc/uvm-1.2/comps/uvm_scoreboard.svh'.
Back to file '/app/synopsys/installers/vcs/W-2024.09//etc/uvm-1.2/comps/uvm_comps.svh'.
Parsing included file '/app/synopsys/installers/vcs/W-2024.09//etc/uvm-1.2/comps/uvm_agent.svh'.
Back to file '/app/synopsys/installers/vcs/W-2024.09//etc/uvm-1.2/comps/uvm_comps.svh'.
Parsing included file '/app/synopsys/installers/vcs/W-2024.09//etc/uvm-1.2/comps/uvm_env.svh'.
Back to file '/app/synopsys/installers/vcs/W-2024.09//etc/uvm-1.2/comps/uvm_comps.svh'.
Parsing included file '/app/synopsys/installers/vcs/W-2024.09//etc/uvm-1.2/comps/uvm_test.svh'.
Back to file '/app/synopsys/installers/vcs/W-2024.09//etc/uvm-1.2/comps/uvm_comps.svh'.
Back to file '/app/synopsys/installers/vcs/W-2024.09//etc/uvm-1.2/uvm_pkg.sv'.
Parsing included file '/app/synopsys/installers/vcs/W-2024.09//etc/uvm-1.2/seq/uvm_seq.svh'.
Parsing included file '/app/synopsys/installers/vcs/W-2024.09//etc/uvm-1.2/seq/uvm_sequence_item.svh'.
Back to file '/app/synopsys/installers/vcs/W-2024.09//etc/uvm-1.2/seq/uvm_seq.svh'.
Parsing included file '/app/synopsys/installers/vcs/W-2024.09//etc/uvm-1.2/seq/uvm_sequencer_base.svh'.
Back to file '/app/synopsys/installers/vcs/W-2024.09//etc/uvm-1.2/seq/uvm_seq.svh'.
Parsing included file '/app/synopsys/installers/vcs/W-2024.09//etc/uvm-1.2/seq/uvm_sequencer_analysis_fifo.svh'.
Back to file '/app/synopsys/installers/vcs/W-2024.09//etc/uvm-1.2/seq/uvm_seq.svh'.
Parsing included file '/app/synopsys/installers/vcs/W-2024.09//etc/uvm-1.2/seq/uvm_sequencer_param_base.svh'.
Back to file '/app/synopsys/installers/vcs/W-2024.09//etc/uvm-1.2/seq/uvm_seq.svh'.
Parsing included file '/app/synopsys/installers/vcs/W-2024.09//etc/uvm-1.2/seq/uvm_sequencer.svh'.
Back to file '/app/synopsys/installers/vcs/W-2024.09//etc/uvm-1.2/seq/uvm_seq.svh'.
Parsing included file '/app/synopsys/installers/vcs/W-2024.09//etc/uvm-1.2/seq/uvm_push_sequencer.svh'.
Back to file '/app/synopsys/installers/vcs/W-2024.09//etc/uvm-1.2/seq/uvm_seq.svh'.
Parsing included file '/app/synopsys/installers/vcs/W-2024.09//etc/uvm-1.2/seq/uvm_sequence_base.svh'.
Back to file '/app/synopsys/installers/vcs/W-2024.09//etc/uvm-1.2/seq/uvm_seq.svh'.
Parsing included file '/app/synopsys/installers/vcs/W-2024.09//etc/uvm-1.2/seq/uvm_sequence.svh'.
Back to file '/app/synopsys/installers/vcs/W-2024.09//etc/uvm-1.2/seq/uvm_seq.svh'.
Parsing included file '/app/synopsys/installers/vcs/W-2024.09//etc/uvm-1.2/seq/uvm_sequence_library.svh'.
Back to file '/app/synopsys/installers/vcs/W-2024.09//etc/uvm-1.2/seq/uvm_seq.svh'.
Parsing included file '/app/synopsys/installers/vcs/W-2024.09//etc/uvm-1.2/seq/uvm_sequence_builtin.svh'.
Back to file '/app/synopsys/installers/vcs/W-2024.09//etc/uvm-1.2/seq/uvm_seq.svh'.
Back to file '/app/synopsys/installers/vcs/W-2024.09//etc/uvm-1.2/uvm_pkg.sv'.
Parsing included file '/app/synopsys/installers/vcs/W-2024.09//etc/uvm-1.2/tlm2/uvm_tlm2.svh'.
Parsing included file '/app/synopsys/installers/vcs/W-2024.09//etc/uvm-1.2/tlm2/uvm_tlm2_defines.svh'.
Back to file '/app/synopsys/installers/vcs/W-2024.09//etc/uvm-1.2/tlm2/uvm_tlm2.svh'.
Parsing included file '/app/synopsys/installers/vcs/W-2024.09//etc/uvm-1.2/tlm2/uvm_tlm2_time.svh'.
Back to file '/app/synopsys/installers/vcs/W-2024.09//etc/uvm-1.2/tlm2/uvm_tlm2.svh'.
Parsing included file '/app/synopsys/installers/vcs/W-2024.09//etc/uvm-1.2/tlm2/uvm_tlm2_generic_payload.svh'.
Back to file '/app/synopsys/installers/vcs/W-2024.09//etc/uvm-1.2/tlm2/uvm_tlm2.svh'.
Parsing included file '/app/synopsys/installers/vcs/W-2024.09//etc/uvm-1.2/tlm2/uvm_tlm2_ifs.svh'.
Back to file '/app/synopsys/installers/vcs/W-2024.09//etc/uvm-1.2/tlm2/uvm_tlm2.svh'.
Parsing included file '/app/synopsys/installers/vcs/W-2024.09//etc/uvm-1.2/tlm2/uvm_tlm2_imps.svh'.
Back to file '/app/synopsys/installers/vcs/W-2024.09//etc/uvm-1.2/tlm2/uvm_tlm2.svh'.
Parsing included file '/app/synopsys/installers/vcs/W-2024.09//etc/uvm-1.2/tlm2/uvm_tlm2_ports.svh'.
Back to file '/app/synopsys/installers/vcs/W-2024.09//etc/uvm-1.2/tlm2/uvm_tlm2.svh'.
Parsing included file '/app/synopsys/installers/vcs/W-2024.09//etc/uvm-1.2/tlm2/uvm_tlm2_exports.svh'.
Back to file '/app/synopsys/installers/vcs/W-2024.09//etc/uvm-1.2/tlm2/uvm_tlm2.svh'.
Parsing included file '/app/synopsys/installers/vcs/W-2024.09//etc/uvm-1.2/tlm2/uvm_tlm2_sockets_base.svh'.
Back to file '/app/synopsys/installers/vcs/W-2024.09//etc/uvm-1.2/tlm2/uvm_tlm2.svh'.
Parsing included file '/app/synopsys/installers/vcs/W-2024.09//etc/uvm-1.2/tlm2/uvm_tlm2_sockets.svh'.
Back to file '/app/synopsys/installers/vcs/W-2024.09//etc/uvm-1.2/tlm2/uvm_tlm2.svh'.
Back to file '/app/synopsys/installers/vcs/W-2024.09//etc/uvm-1.2/uvm_pkg.sv'.
Parsing included file '/app/synopsys/installers/vcs/W-2024.09//etc/uvm-1.2/reg/uvm_reg_model.svh'.
Parsing included file '/app/synopsys/installers/vcs/W-2024.09//etc/uvm-1.2/reg/uvm_reg_item.svh'.
Back to file '/app/synopsys/installers/vcs/W-2024.09//etc/uvm-1.2/reg/uvm_reg_model.svh'.
Parsing included file '/app/synopsys/installers/vcs/W-2024.09//etc/uvm-1.2/reg/uvm_reg_adapter.svh'.
Back to file '/app/synopsys/installers/vcs/W-2024.09//etc/uvm-1.2/reg/uvm_reg_model.svh'.
Parsing included file '/app/synopsys/installers/vcs/W-2024.09//etc/uvm-1.2/reg/uvm_reg_predictor.svh'.
Back to file '/app/synopsys/installers/vcs/W-2024.09//etc/uvm-1.2/reg/uvm_reg_model.svh'.
Parsing included file '/app/synopsys/installers/vcs/W-2024.09//etc/uvm-1.2/reg/uvm_reg_sequence.svh'.
Back to file '/app/synopsys/installers/vcs/W-2024.09//etc/uvm-1.2/reg/uvm_reg_model.svh'.
Parsing included file '/app/synopsys/installers/vcs/W-2024.09//etc/uvm-1.2/reg/uvm_reg_cbs.svh'.
Back to file '/app/synopsys/installers/vcs/W-2024.09//etc/uvm-1.2/reg/uvm_reg_model.svh'.
Parsing included file '/app/synopsys/installers/vcs/W-2024.09//etc/uvm-1.2/reg/uvm_reg_backdoor.svh'.
Back to file '/app/synopsys/installers/vcs/W-2024.09//etc/uvm-1.2/reg/uvm_reg_model.svh'.
Parsing included file '/app/synopsys/installers/vcs/W-2024.09//etc/uvm-1.2/reg/uvm_reg_field.svh'.
Back to file '/app/synopsys/installers/vcs/W-2024.09//etc/uvm-1.2/reg/uvm_reg_model.svh'.
Parsing included file '/app/synopsys/installers/vcs/W-2024.09//etc/uvm-1.2/reg/uvm_vreg_field.svh'.
Back to file '/app/synopsys/installers/vcs/W-2024.09//etc/uvm-1.2/reg/uvm_reg_model.svh'.
Parsing included file '/app/synopsys/installers/vcs/W-2024.09//etc/uvm-1.2/reg/uvm_reg.svh'.
Back to file '/app/synopsys/installers/vcs/W-2024.09//etc/uvm-1.2/reg/uvm_reg_model.svh'.
Parsing included file '/app/synopsys/installers/vcs/W-2024.09//etc/uvm-1.2/reg/uvm_reg_indirect.svh'.
Back to file '/app/synopsys/installers/vcs/W-2024.09//etc/uvm-1.2/reg/uvm_reg_model.svh'.
Parsing included file '/app/synopsys/installers/vcs/W-2024.09//etc/uvm-1.2/reg/uvm_reg_fifo.svh'.
Back to file '/app/synopsys/installers/vcs/W-2024.09//etc/uvm-1.2/reg/uvm_reg_model.svh'.
Parsing included file '/app/synopsys/installers/vcs/W-2024.09//etc/uvm-1.2/reg/uvm_reg_file.svh'.
Back to file '/app/synopsys/installers/vcs/W-2024.09//etc/uvm-1.2/reg/uvm_reg_model.svh'.
Parsing included file '/app/synopsys/installers/vcs/W-2024.09//etc/uvm-1.2/reg/uvm_mem_mam.svh'.
Back to file '/app/synopsys/installers/vcs/W-2024.09//etc/uvm-1.2/reg/uvm_reg_model.svh'.
Parsing included file '/app/synopsys/installers/vcs/W-2024.09//etc/uvm-1.2/reg/uvm_vreg.svh'.
Back to file '/app/synopsys/installers/vcs/W-2024.09//etc/uvm-1.2/reg/uvm_reg_model.svh'.
Parsing included file '/app/synopsys/installers/vcs/W-2024.09//etc/uvm-1.2/reg/uvm_mem.svh'.
Back to file '/app/synopsys/installers/vcs/W-2024.09//etc/uvm-1.2/reg/uvm_reg_model.svh'.
Parsing included file '/app/synopsys/installers/vcs/W-2024.09//etc/uvm-1.2/reg/uvm_reg_map.svh'.
Back to file '/app/synopsys/installers/vcs/W-2024.09//etc/uvm-1.2/reg/uvm_reg_model.svh'.
Parsing included file '/app/synopsys/installers/vcs/W-2024.09//etc/uvm-1.2/reg/uvm_reg_block.svh'.
Back to file '/app/synopsys/installers/vcs/W-2024.09//etc/uvm-1.2/reg/uvm_reg_model.svh'.
Parsing included file '/app/synopsys/installers/vcs/W-2024.09//etc/uvm-1.2/reg/sequences/uvm_reg_hw_reset_seq.svh'.
Back to file '/app/synopsys/installers/vcs/W-2024.09//etc/uvm-1.2/reg/uvm_reg_model.svh'.
Parsing included file '/app/synopsys/installers/vcs/W-2024.09//etc/uvm-1.2/reg/sequences/uvm_reg_bit_bash_seq.svh'.
Back to file '/app/synopsys/installers/vcs/W-2024.09//etc/uvm-1.2/reg/uvm_reg_model.svh'.
Parsing included file '/app/synopsys/installers/vcs/W-2024.09//etc/uvm-1.2/reg/sequences/uvm_mem_walk_seq.svh'.
Back to file '/app/synopsys/installers/vcs/W-2024.09//etc/uvm-1.2/reg/uvm_reg_model.svh'.
Parsing included file '/app/synopsys/installers/vcs/W-2024.09//etc/uvm-1.2/reg/sequences/uvm_mem_access_seq.svh'.
Back to file '/app/synopsys/installers/vcs/W-2024.09//etc/uvm-1.2/reg/uvm_reg_model.svh'.
Parsing included file '/app/synopsys/installers/vcs/W-2024.09//etc/uvm-1.2/reg/sequences/uvm_reg_access_seq.svh'.
Back to file '/app/synopsys/installers/vcs/W-2024.09//etc/uvm-1.2/reg/uvm_reg_model.svh'.
Parsing included file '/app/synopsys/installers/vcs/W-2024.09//etc/uvm-1.2/reg/sequences/uvm_reg_mem_shared_access_seq.svh'.
Back to file '/app/synopsys/installers/vcs/W-2024.09//etc/uvm-1.2/reg/uvm_reg_model.svh'.
Parsing included file '/app/synopsys/installers/vcs/W-2024.09//etc/uvm-1.2/reg/sequences/uvm_reg_mem_built_in_seq.svh'.
Back to file '/app/synopsys/installers/vcs/W-2024.09//etc/uvm-1.2/reg/uvm_reg_model.svh'.
Parsing included file '/app/synopsys/installers/vcs/W-2024.09//etc/uvm-1.2/reg/sequences/uvm_reg_mem_hdl_paths_seq.svh'.
Back to file '/app/synopsys/installers/vcs/W-2024.09//etc/uvm-1.2/reg/uvm_reg_model.svh'.
Parsing included file '/app/synopsys/installers/vcs/W-2024.09//etc/uvm-1.2/reg/snps_uvm_reg_bank.svh'.
Back to file '/app/synopsys/installers/vcs/W-2024.09//etc/uvm-1.2/reg/uvm_reg_model.svh'.
Back to file '/app/synopsys/installers/vcs/W-2024.09//etc/uvm-1.2/uvm_pkg.sv'.
Parsing included file '/app/synopsys/installers/vcs/W-2024.09//etc/uvm-1.2/vcs/vcs_uvm_alt.sv'.
Back to file '/app/synopsys/installers/vcs/W-2024.09//etc/uvm-1.2/uvm_pkg.sv'.
Parsing design file '/app/synopsys/installers/vcs/W-2024.09//etc/uvm-1.2/vcs/uvm_custom_install_vcs_recorder.sv'
Parsing included file '/app/synopsys/installers/vcs/W-2024.09//etc/uvm-1.2/vcs/msglog.svh'.
Back to file '/app/synopsys/installers/vcs/W-2024.09//etc/uvm-1.2/vcs/uvm_custom_install_vcs_recorder.sv'.
Parsing included file '/app/synopsys/installers/vcs/W-2024.09//etc/uvm-1.2/vcs/uvm_msglog_report_server.sv'.
Back to file '/app/synopsys/installers/vcs/W-2024.09//etc/uvm-1.2/vcs/uvm_custom_install_vcs_recorder.sv'.
Parsing included file '/app/synopsys/installers/vcs/W-2024.09//etc/uvm-1.2/vcs/uvm_vcs_recorder.svh'.
Parsing included file '/app/synopsys/installers/vcs/W-2024.09//etc/uvm-1.2/vcs/uvm_vcs_tr_database.svh'.
Parsing included file '/app/synopsys/installers/vcs/W-2024.09//etc/uvm-1.2/vcs/uvm_vcs_tr_stream.svh'.
Back to file '/app/synopsys/installers/vcs/W-2024.09//etc/uvm-1.2/vcs/uvm_vcs_tr_database.svh'.
Back to file '/app/synopsys/installers/vcs/W-2024.09//etc/uvm-1.2/vcs/uvm_vcs_recorder.svh'.
Back to file '/app/synopsys/installers/vcs/W-2024.09//etc/uvm-1.2/vcs/uvm_custom_install_vcs_recorder.sv'.
Parsing included file '/app/synopsys/installers/vcs/W-2024.09//etc/uvm-1.2/vcs/uvm_vcs_record_interface.sv'.
Back to file '/app/synopsys/installers/vcs/W-2024.09//etc/uvm-1.2/vcs/uvm_custom_install_vcs_recorder.sv'.
Parsing design file '/app/synopsys/installers/vcs/W-2024.09//etc/uvm-1.2/verdi/uvm_custom_install_verdi_recorder.sv'
Parsing included file '/app/synopsys/installers/vcs/W-2024.09//etc/uvm-1.2/uvm_macros.svh'.
Back to file '/app/synopsys/installers/vcs/W-2024.09//etc/uvm-1.2/verdi/uvm_custom_install_verdi_recorder.sv'.
Parsing included file '/app/synopsys/installers/vcs/W-2024.09//etc/uvm-1.2/verdi/uvm_verdi_recorder.svh'.
Parsing included file '/app/synopsys/installers/vcs/W-2024.09//etc/uvm-1.2/verdi/uvm_verdi_pli_base.svh'.
Back to file '/app/synopsys/installers/vcs/W-2024.09//etc/uvm-1.2/verdi/uvm_verdi_recorder.svh'.
Parsing included file '/app/synopsys/installers/vcs/W-2024.09//etc/uvm-1.2/verdi/uvm_verdi_tr_database.svh'.
Parsing included file '/app/synopsys/installers/vcs/W-2024.09//etc/uvm-1.2/verdi/uvm_verdi_tr_stream.svh'.
Back to file '/app/synopsys/installers/vcs/W-2024.09//etc/uvm-1.2/verdi/uvm_verdi_tr_database.svh'.
Back to file '/app/synopsys/installers/vcs/W-2024.09//etc/uvm-1.2/verdi/uvm_verdi_recorder.svh'.
Back to file '/app/synopsys/installers/vcs/W-2024.09//etc/uvm-1.2/verdi/uvm_custom_install_verdi_recorder.sv'.
Parsing included file '/app/synopsys/installers/vcs/W-2024.09//etc/uvm-1.2/verdi/uvm_verdi_reg_map_recording.sv'.
Back to file '/app/synopsys/installers/vcs/W-2024.09//etc/uvm-1.2/verdi/uvm_custom_install_verdi_recorder.sv'.
Parsing included file '/app/synopsys/installers/vcs/W-2024.09//etc/uvm-1.2/verdi/uvm_verdi_message_catcher.svh'.
Parsing included file '/app/synopsys/installers/vcs/W-2024.09//etc/uvm-1.2/verdi/uvm_verdi_pli_base.svh'.
Back to file '/app/synopsys/installers/vcs/W-2024.09//etc/uvm-1.2/verdi/uvm_verdi_message_catcher.svh'.
Back to file '/app/synopsys/installers/vcs/W-2024.09//etc/uvm-1.2/verdi/uvm_custom_install_verdi_recorder.sv'.
Parsing included file '/app/synopsys/installers/vcs/W-2024.09//etc/uvm-1.2/verdi/uvm_verdi_factory.svh'.
Back to file '/app/synopsys/installers/vcs/W-2024.09//etc/uvm-1.2/verdi/uvm_custom_install_verdi_recorder.sv'.
Parsing included file '/app/synopsys/installers/vcs/W-2024.09//etc/uvm-1.2/verdi/./dpi/uvm_verdi_dpi.svh'.
Back to file '/app/synopsys/installers/vcs/W-2024.09//etc/uvm-1.2/verdi/uvm_custom_install_verdi_recorder.sv'.
Parsing included file '/app/synopsys/installers/vcs/W-2024.09//etc/uvm-1.2/verdi/uvm_verdi_reg_recording.sv'.
Back to file '/app/synopsys/installers/vcs/W-2024.09//etc/uvm-1.2/verdi/uvm_custom_install_verdi_recorder.sv'.
Parsing included file '/app/synopsys/installers/verdi/X-2025.06/share/PLI/VCS/include/verdi_trans_recorder_dpi.svh'.
Back to file '/app/synopsys/installers/vcs/W-2024.09//etc/uvm-1.2/verdi/uvm_custom_install_verdi_recorder.sv'.
Parsing included file '/app/synopsys/installers/vcs/W-2024.09//etc/uvm-1.2/verdi/uvm_verdi_pli.svh'.
Back to file '/app/synopsys/installers/vcs/W-2024.09//etc/uvm-1.2/verdi/uvm_custom_install_verdi_recorder.sv'.
Parsing design file '/app/synopsys/installers/vcs/W-2024.09//etc/uvm-1.2/verdi/uvm_custom_install_verdi_recorder.sv'
Parsing design file 'axi4_lite_top.sv'
Parsing included file '/app/synopsys/installers/vcs/W-2024.09//etc/uvm-1.2/uvm_macros.svh'.
Back to file 'axi4_lite_top.sv'.
Parsing included file 'axi4_lite_interface.sv'.

Warning-[TMBIN] Too many bits in Based Number
axi4_lite_interface.sv, 140
  The specified width is '32' bits, actually got '36' bits.
  The offending number is : '0000_00001'.

Back to file 'axi4_lite_top.sv'.
Parsing included file 'axi4_lite_seq_item.sv'.
Back to file 'axi4_lite_top.sv'.
Parsing included file 'write_seq.sv'.
Back to file 'axi4_lite_top.sv'.
Parsing included file 'read_seq.sv'.
Back to file 'axi4_lite_top.sv'.
Parsing included file 'wr_rd_seq.sv'.
Back to file 'axi4_lite_top.sv'.
Parsing included file 'slverr_seq.sv'.
Back to file 'axi4_lite_top.sv'.
Parsing included file 'axi4_lite_sequencer.sv'.
Back to file 'axi4_lite_top.sv'.
Parsing included file 'axi4_lite_driver.sv'.
Back to file 'axi4_lite_top.sv'.
Parsing included file 'axi4_lite_act_monitor.sv'.
Back to file 'axi4_lite_top.sv'.
Parsing included file 'axi4_lite_active_agent.sv'.
Back to file 'axi4_lite_top.sv'.
Parsing included file 'axi4_lite_sb.sv'.
Back to file 'axi4_lite_top.sv'.
Parsing included file 'axi4_lite_coverage.sv'.
Back to file 'axi4_lite_top.sv'.
Parsing included file 'axi4_lite_env.sv'.
Back to file 'axi4_lite_top.sv'.
Parsing included file 'axi4_lite_test.sv'.
Back to file 'axi4_lite_top.sv'.
Parsing included file 'design.sv'.
Back to file 'axi4_lite_top.sv'.
Top Level Modules:
       uvm_custom_install_recording
       uvm_custom_install_verdi_recording
       axi4_lite_top
No TimeScale specified
VCS Coverage Metrics Release W-2024.09_Full64 Copyright (c) 1991-2024 by Synopsys Inc.
Starting vcs inline pass...
10 modules and 0 UDP read.
recompiling package vcs_paramclassrepository
recompiling package _vcs_DPI_package
recompiling package uvm_pkg
recompiling package _vcs_msglog
recompiling module uvm_custom_install_recording
recompiling module uvm_custom_install_verdi_recording
recompiling module axi4_lite_interface
recompiling module axi4_lite_slave
recompiling package axi4_lite_pkg
recompiling module axi4_lite_top
All of 10 modules done
make[1]: Entering directory '/home/dvft1103/dvft11/axi4lite_clean/csrc'
rm -f _cuarc*.so _csrc*.so pre_vcsobj_*.so share_vcsobj_*.so
g++ -w  -pipe -DVCSMX -DUVM_DPI_DO_TYPE_CHECK -fPIC -O -I/app/synopsys/installers/vcs/W-2024.09/include \
-c /app/synopsys/installers/vcs/W-2024.09//etc/uvm-1.2/dpi/uvm_dpi.cc
g++ -w  -pipe -DVCSMX -DUVM_DPI_DO_TYPE_CHECK -fPIC -O -I/app/synopsys/installers/vcs/W-2024.09/include \
-c /app/synopsys/installers/vcs/W-2024.09//etc/uvm-1.2/verdi/dpi/uvm_verdi_dpi.cpp \

if [ -x ../simv ]; then chmod a-x ../simv; fi
g++  -o ../simv      -rdynamic  -Wl,-rpath='$ORIGIN'/simv.daidir -Wl,-rpath=./simv.daidir \
-Wl,-rpath=/app/synopsys/installers/vcs/W-2024.09/linux64/lib -L/app/synopsys/installers/vcs/W-2024.09/linux64/lib \
-Wl,-rpath-link=./  /usr/lib64/libnuma.so.1 uvm_dpi.o uvm_verdi_dpi.o   objs/amcQw_d.o \
_801873_archive_1.so   SIM_l.o      rmapats_mop.o rmapats.o rmar.o rmar_nd.o  rmar_llvm_0_1.o \
rmar_llvm_0_0.o            -lvirsim -lerrorinf -lsnpsmalloc -lvfs    -lvcsnew -lsimprofile \
-lreader_common /app/synopsys/installers/vcs/W-2024.09/linux64/lib/libBA.a -luclinative \
/app/synopsys/installers/vcs/W-2024.09/linux64/lib/vcs_tls.o   -Wl,-whole-archive \
-lvcsucli    -Wl,-no-whole-archive       ./../simv.daidir/vc_hdrs.o  _vcs_pli_stub_.o \
/app/synopsys/installers/vcs/W-2024.09/linux64/lib/vcs_save_restore_new.o /app/synopsys/installers/verdi/X-2025.06/share/PLI/VCS/LINUX64/pli.a \
-ldl  -lc -lm -lpthread -ldl 
../simv up to date
make[1]: Leaving directory '/home/dvft1103/dvft11/axi4lite_clean/csrc'
Command: /home/dvft1103/dvft11/axi4lite_clean/./simv -a debug.log -cm_runsilent -cm line+tgl+assert+cond+fsm+branch
Chronologic VCS simulator copyright 1991-2024
Contains Synopsys proprietary information.
Compiler version W-2024.09_Full64; Runtime version W-2024.09_Full64;  Jun  4 15:15 2026
UVM_INFO /app/synopsys/installers/vcs/W-2024.09//etc/uvm-1.2/base/uvm_root.svh(402) @ 0: reporter [UVM/RELNOTES] 
----------------------------------------------------------------
UVM-1.2.Synopsys
(C) 2007-2014 Mentor Graphics Corporation
(C) 2007-2014 Cadence Design Systems, Inc.
(C) 2006-2014 Synopsys, Inc.
(C) 2011-2013 Cypress Semiconductor Corp.
(C) 2013-2014 NVIDIA Corporation
----------------------------------------------------------------

  ***********       IMPORTANT RELEASE NOTES         ************

  You are using a version of the UVM library that has been compiled
  with `UVM_NO_DEPRECATED undefined.
  See http://www.eda.org/svdb/view.php?id=3313 for more details.

  You are using a version of the UVM library that has been compiled
  with `UVM_OBJECT_DO_NOT_NEED_CONSTRUCTOR undefined.
  See http://www.eda.org/svdb/view.php?id=3770 for more details.

      (Specify +UVM_NO_RELNOTES to turn off this notice)

UVM_INFO @ 0: reporter [RNTST] Running test axi4_lite_test...
"axi4_lite_interface.sv", 82: axi4_lite_top.intf_h.rst_awvalid: started at 5s failed at 5s
	Offending '(awvalid == 1'b0)'
"axi4_lite_interface.sv", 89: axi4_lite_top.intf_h.rst_wvalid: started at 5s failed at 5s
	Offending '(wvalid == 1'b0)'
"axi4_lite_interface.sv", 96: axi4_lite_top.intf_h.rst_bready: started at 5s failed at 5s
	Offending '(bready == 1'b0)'
"axi4_lite_interface.sv", 103: axi4_lite_top.intf_h.rst_arvalid: started at 5s failed at 5s
	Offending '(arvalid == 1'b0)'
"axi4_lite_interface.sv", 110: axi4_lite_top.intf_h.rst_rready: started at 5s failed at 5s
	Offending '(rready == 1'b0)'
UVM_INFO axi4_lite_driver.sv(216) @ 15: uvm_test_top.env_h.act_agent_h.drv_h [[DRV]] Reset detected before seq_item_port
UVM_INFO write_seq.sv(27) @ 25: uvm_test_top.env_h.act_agent_h.seqr_h@@write_seq_h [AWADDR_SEQ] This is write_seq : ----------------------------------------------------------------------------------------------------------
Name                           Type                Size  Value                                            
----------------------------------------------------------------------------------------------------------
item_h                         axi4_lite_seq_item  -     @652                                             
  awaddr                       integral            32    'hb4                                             
  awvalid                      integral            1     'h0                                              
  awready                      integral            1     'h0                                              
  wdata                        integral            32    'ha322110c                                       
  wstrb                        integral            4     'hf                                              
  wvalid                       integral            1     'h0                                              
  wready                       integral            1     'h0                                              
  bresp                        integral            3     'h0                                              
  bvalid                       integral            1     'h0                                              
  bready                       integral            1     'h0                                              
  araddr                       integral            32    'h9acdb2e0                                       
  arvalid                      integral            1     'h0                                              
  arready                      integral            1     'h0                                              
  rdata                        integral            32    'h0                                              
  rresp                        integral            3     'h0                                              
  rvalid                       integral            1     'h0                                              
  rready                       integral            1     'h0                                              
  is_write                     integral            1     'h1                                              
  rst_f                        integral            1     'h0                                              
  begin_time                   time                64    25                                               
  depth                        int                 32    'd2                                              
  parent sequence (name)       string              11    write_seq_h                                      
  parent sequence (full name)  string              49    uvm_test_top.env_h.act_agent_h.seqr_h.write_seq_h
  sequencer                    string              37    uvm_test_top.env_h.act_agent_h.seqr_h            
----------------------------------------------------------------------------------------------------------

UVM_INFO axi4_lite_driver.sv(54) @ 25: uvm_test_top.env_h.act_agent_h.drv_h [[DRV]] Entered wr_addr_channel
UVM_INFO axi4_lite_driver.sv(87) @ 25: uvm_test_top.env_h.act_agent_h.drv_h [[DRV]] Entered wr_data_channel
UVM_INFO design.sv(138) @ 35: reporter [DESIGN] This is DUT 0
UVM_INFO axi4_lite_act_monitor.sv(65) @ 40: uvm_test_top.env_h.act_agent_h.mon_h [MON_AW] DW Captured : wdata 0xa322110c
UVM_INFO axi4_lite_driver.sv(110) @ 45: uvm_test_top.env_h.act_agent_h.drv_h [DRV] DRV DW_CHANNEL : wdata = 0Xa322110c
UVM_INFO axi4_lite_driver.sv(111) @ 45: uvm_test_top.env_h.act_agent_h.drv_h [[DRV]] Exiting wr_data_channel
UVM_INFO axi4_lite_act_monitor.sv(59) @ 50: uvm_test_top.env_h.act_agent_h.mon_h [MON_AW] AW Captured : waddr 0xb4
UVM_INFO axi4_lite_driver.sv(81) @ 55: uvm_test_top.env_h.act_agent_h.drv_h [DRV] DRV AW_CHANNEL : awaddr=0xb4
UVM_INFO axi4_lite_driver.sv(82) @ 55: uvm_test_top.env_h.act_agent_h.drv_h [[DRV]] Exiting wr_addr_channel
UVM_INFO axi4_lite_driver.sv(116) @ 55: uvm_test_top.env_h.act_agent_h.drv_h [[DRV]] Entered wr_resp_channel
UVM_INFO axi4_lite_act_monitor.sv(77) @ 70: uvm_test_top.env_h.act_agent_h.mon_h [MON_WRITE_TX] WRITE_TX : awaddr = 0xb4, wdata= 0xa322110c, bresp =0
UVM_INFO axi4_lite_sb.sv(45) @ 70: uvm_test_top.env_h.sb_h [[SB]] WRITE TX received : awaddr=0xb4 wdata=0xa322110c bresp=0
UVM_INFO axi4_lite_sb.sv(50) @ 70: uvm_test_top.env_h.sb_h [[SB]] WRITE PASS : awaddr=0xb4 wdata=0xa322110c bresp=OKAY
UVM_INFO axi4_lite_sb.sv(66) @ 70: uvm_test_top.env_h.sb_h [[SB]] WRITE ADDR ALIGN PASS : awaddr=0xb4 is 4-byte aligned
UVM_INFO axi4_lite_driver.sv(143) @ 95: uvm_test_top.env_h.act_agent_h.drv_h [[DRV]] Exiting wr_resp_channel
UVM_INFO axi4_lite_driver.sv(235) @ 95: uvm_test_top.env_h.act_agent_h.drv_h [[DRV]] After item_done()
UVM_INFO write_seq.sv(37) @ 95: uvm_test_top.env_h.act_agent_h.seqr_h@@write_seq_h [[SEQ]] Response = ----------------------------------------------------------------------------------------------------------
Name                           Type                Size  Value                                            
----------------------------------------------------------------------------------------------------------
item_h                         axi4_lite_seq_item  -     @652                                             
  awaddr                       integral            32    'hb4                                             
  awvalid                      integral            1     'h0                                              
  awready                      integral            1     'h0                                              
  wdata                        integral            32    'ha322110c                                       
  wstrb                        integral            4     'hf                                              
  wvalid                       integral            1     'h0                                              
  wready                       integral            1     'h0                                              
  bresp                        integral            3     'h0                                              
  bvalid                       integral            1     'h0                                              
  bready                       integral            1     'h0                                              
  araddr                       integral            32    'h9acdb2e0                                       
  arvalid                      integral            1     'h0                                              
  arready                      integral            1     'h0                                              
  rdata                        integral            32    'h0                                              
  rresp                        integral            3     'h0                                              
  rvalid                       integral            1     'h0                                              
  rready                       integral            1     'h0                                              
  is_write                     integral            1     'h1                                              
  rst_f                        integral            1     'h0                                              
  begin_time                   time                64    25                                               
  end_time                     time                64    95                                               
  depth                        int                 32    'd2                                              
  parent sequence (name)       string              11    write_seq_h                                      
  parent sequence (full name)  string              49    uvm_test_top.env_h.act_agent_h.seqr_h.write_seq_h
  sequencer                    string              37    uvm_test_top.env_h.act_agent_h.seqr_h            
----------------------------------------------------------------------------------------------------------

UVM_INFO axi4_lite_driver.sv(216) @ 125: uvm_test_top.env_h.act_agent_h.drv_h [[DRV]] Reset detected before seq_item_port
UVM_INFO write_seq.sv(27) @ 135: uvm_test_top.env_h.act_agent_h.seqr_h@@write_seq_h [AWADDR_SEQ] This is write_seq : ----------------------------------------------------------------------------------------------------------
Name                           Type                Size  Value                                            
----------------------------------------------------------------------------------------------------------
item_h                         axi4_lite_seq_item  -     @728                                             
  awaddr                       integral            32    'hf4                                             
  awvalid                      integral            1     'h0                                              
  awready                      integral            1     'h0                                              
  wdata                        integral            32    'hb04b5f4                                        
  wstrb                        integral            4     'hf                                              
  wvalid                       integral            1     'h0                                              
  wready                       integral            1     'h0                                              
  bresp                        integral            3     'h0                                              
  bvalid                       integral            1     'h0                                              
  bready                       integral            1     'h0                                              
  araddr                       integral            32    'h4e08cc58                                       
  arvalid                      integral            1     'h0                                              
  arready                      integral            1     'h0                                              
  rdata                        integral            32    'h0                                              
  rresp                        integral            3     'h0                                              
  rvalid                       integral            1     'h0                                              
  rready                       integral            1     'h0                                              
  is_write                     integral            1     'h1                                              
  rst_f                        integral            1     'h0                                              
  begin_time                   time                64    135                                              
  depth                        int                 32    'd2                                              
  parent sequence (name)       string              11    write_seq_h                                      
  parent sequence (full name)  string              49    uvm_test_top.env_h.act_agent_h.seqr_h.write_seq_h
  sequencer                    string              37    uvm_test_top.env_h.act_agent_h.seqr_h            
----------------------------------------------------------------------------------------------------------

UVM_INFO axi4_lite_driver.sv(54) @ 135: uvm_test_top.env_h.act_agent_h.drv_h [[DRV]] Entered wr_addr_channel
UVM_INFO axi4_lite_driver.sv(87) @ 135: uvm_test_top.env_h.act_agent_h.drv_h [[DRV]] Entered wr_data_channel
UVM_INFO design.sv(138) @ 145: reporter [DESIGN] This is DUT 0
UVM_INFO axi4_lite_act_monitor.sv(65) @ 150: uvm_test_top.env_h.act_agent_h.mon_h [MON_AW] DW Captured : wdata 0xb04b5f4
UVM_INFO axi4_lite_driver.sv(110) @ 155: uvm_test_top.env_h.act_agent_h.drv_h [DRV] DRV DW_CHANNEL : wdata = 0Xb04b5f4
UVM_INFO axi4_lite_driver.sv(111) @ 155: uvm_test_top.env_h.act_agent_h.drv_h [[DRV]] Exiting wr_data_channel
UVM_INFO axi4_lite_act_monitor.sv(59) @ 160: uvm_test_top.env_h.act_agent_h.mon_h [MON_AW] AW Captured : waddr 0xf4
UVM_INFO axi4_lite_driver.sv(81) @ 165: uvm_test_top.env_h.act_agent_h.drv_h [DRV] DRV AW_CHANNEL : awaddr=0xf4
UVM_INFO axi4_lite_driver.sv(82) @ 165: uvm_test_top.env_h.act_agent_h.drv_h [[DRV]] Exiting wr_addr_channel
UVM_INFO axi4_lite_driver.sv(116) @ 165: uvm_test_top.env_h.act_agent_h.drv_h [[DRV]] Entered wr_resp_channel
UVM_INFO axi4_lite_act_monitor.sv(77) @ 180: uvm_test_top.env_h.act_agent_h.mon_h [MON_WRITE_TX] WRITE_TX : awaddr = 0xf4, wdata= 0xb04b5f4, bresp =0
UVM_INFO axi4_lite_sb.sv(45) @ 180: uvm_test_top.env_h.sb_h [[SB]] WRITE TX received : awaddr=0xf4 wdata=0xb04b5f4 bresp=0
UVM_INFO axi4_lite_sb.sv(50) @ 180: uvm_test_top.env_h.sb_h [[SB]] WRITE PASS : awaddr=0xf4 wdata=0xb04b5f4 bresp=OKAY
UVM_INFO axi4_lite_sb.sv(66) @ 180: uvm_test_top.env_h.sb_h [[SB]] WRITE ADDR ALIGN PASS : awaddr=0xf4 is 4-byte aligned
UVM_INFO axi4_lite_driver.sv(143) @ 205: uvm_test_top.env_h.act_agent_h.drv_h [[DRV]] Exiting wr_resp_channel
UVM_INFO axi4_lite_driver.sv(235) @ 205: uvm_test_top.env_h.act_agent_h.drv_h [[DRV]] After item_done()
UVM_INFO write_seq.sv(37) @ 205: uvm_test_top.env_h.act_agent_h.seqr_h@@write_seq_h [[SEQ]] Response = ----------------------------------------------------------------------------------------------------------
Name                           Type                Size  Value                                            
----------------------------------------------------------------------------------------------------------
item_h                         axi4_lite_seq_item  -     @728                                             
  awaddr                       integral            32    'hf4                                             
  awvalid                      integral            1     'h0                                              
  awready                      integral            1     'h0                                              
  wdata                        integral            32    'hb04b5f4                                        
  wstrb                        integral            4     'hf                                              
  wvalid                       integral            1     'h0                                              
  wready                       integral            1     'h0                                              
  bresp                        integral            3     'h0                                              
  bvalid                       integral            1     'h0                                              
  bready                       integral            1     'h0                                              
  araddr                       integral            32    'h4e08cc58                                       
  arvalid                      integral            1     'h0                                              
  arready                      integral            1     'h0                                              
  rdata                        integral            32    'h0                                              
  rresp                        integral            3     'h0                                              
  rvalid                       integral            1     'h0                                              
  rready                       integral            1     'h0                                              
  is_write                     integral            1     'h1                                              
  rst_f                        integral            1     'h0                                              
  begin_time                   time                64    135                                              
  end_time                     time                64    205                                              
  depth                        int                 32    'd2                                              
  parent sequence (name)       string              11    write_seq_h                                      
  parent sequence (full name)  string              49    uvm_test_top.env_h.act_agent_h.seqr_h.write_seq_h
  sequencer                    string              37    uvm_test_top.env_h.act_agent_h.seqr_h            
----------------------------------------------------------------------------------------------------------

UVM_INFO write_seq.sv(27) @ 215: uvm_test_top.env_h.act_agent_h.seqr_h@@write_seq_h [AWADDR_SEQ] This is write_seq : ----------------------------------------------------------------------------------------------------------
Name                           Type                Size  Value                                            
----------------------------------------------------------------------------------------------------------
item_h                         axi4_lite_seq_item  -     @778                                             
  awaddr                       integral            32    'he4                                             
  awvalid                      integral            1     'h0                                              
  awready                      integral            1     'h0                                              
  wdata                        integral            32    'h70f5cff0                                       
  wstrb                        integral            4     'hf                                              
  wvalid                       integral            1     'h0                                              
  wready                       integral            1     'h0                                              
  bresp                        integral            3     'h0                                              
  bvalid                       integral            1     'h0                                              
  bready                       integral            1     'h0                                              
  araddr                       integral            32    'hc58c62d0                                       
  arvalid                      integral            1     'h0                                              
  arready                      integral            1     'h0                                              
  rdata                        integral            32    'h0                                              
  rresp                        integral            3     'h0                                              
  rvalid                       integral            1     'h0                                              
  rready                       integral            1     'h0                                              
  is_write                     integral            1     'h1                                              
  rst_f                        integral            1     'h0                                              
  begin_time                   time                64    215                                              
  depth                        int                 32    'd2                                              
  parent sequence (name)       string              11    write_seq_h                                      
  parent sequence (full name)  string              49    uvm_test_top.env_h.act_agent_h.seqr_h.write_seq_h
  sequencer                    string              37    uvm_test_top.env_h.act_agent_h.seqr_h            
----------------------------------------------------------------------------------------------------------

UVM_INFO axi4_lite_driver.sv(54) @ 215: uvm_test_top.env_h.act_agent_h.drv_h [[DRV]] Entered wr_addr_channel
UVM_INFO axi4_lite_driver.sv(87) @ 215: uvm_test_top.env_h.act_agent_h.drv_h [[DRV]] Entered wr_data_channel
UVM_INFO design.sv(138) @ 225: reporter [DESIGN] This is DUT b04b5f4
UVM_INFO axi4_lite_act_monitor.sv(65) @ 230: uvm_test_top.env_h.act_agent_h.mon_h [MON_AW] DW Captured : wdata 0x70f5cff0
UVM_INFO axi4_lite_driver.sv(110) @ 235: uvm_test_top.env_h.act_agent_h.drv_h [DRV] DRV DW_CHANNEL : wdata = 0X70f5cff0
UVM_INFO axi4_lite_driver.sv(111) @ 235: uvm_test_top.env_h.act_agent_h.drv_h [[DRV]] Exiting wr_data_channel
UVM_INFO axi4_lite_act_monitor.sv(59) @ 240: uvm_test_top.env_h.act_agent_h.mon_h [MON_AW] AW Captured : waddr 0xe4
UVM_INFO axi4_lite_driver.sv(81) @ 245: uvm_test_top.env_h.act_agent_h.drv_h [DRV] DRV AW_CHANNEL : awaddr=0xe4
UVM_INFO axi4_lite_driver.sv(82) @ 245: uvm_test_top.env_h.act_agent_h.drv_h [[DRV]] Exiting wr_addr_channel
UVM_INFO axi4_lite_driver.sv(116) @ 245: uvm_test_top.env_h.act_agent_h.drv_h [[DRV]] Entered wr_resp_channel
UVM_INFO axi4_lite_act_monitor.sv(77) @ 260: uvm_test_top.env_h.act_agent_h.mon_h [MON_WRITE_TX] WRITE_TX : awaddr = 0xe4, wdata= 0x70f5cff0, bresp =0
UVM_INFO axi4_lite_sb.sv(45) @ 260: uvm_test_top.env_h.sb_h [[SB]] WRITE TX received : awaddr=0xe4 wdata=0x70f5cff0 bresp=0
UVM_INFO axi4_lite_sb.sv(50) @ 260: uvm_test_top.env_h.sb_h [[SB]] WRITE PASS : awaddr=0xe4 wdata=0x70f5cff0 bresp=OKAY
UVM_INFO axi4_lite_sb.sv(66) @ 260: uvm_test_top.env_h.sb_h [[SB]] WRITE ADDR ALIGN PASS : awaddr=0xe4 is 4-byte aligned
UVM_INFO axi4_lite_driver.sv(143) @ 285: uvm_test_top.env_h.act_agent_h.drv_h [[DRV]] Exiting wr_resp_channel
UVM_INFO axi4_lite_driver.sv(235) @ 285: uvm_test_top.env_h.act_agent_h.drv_h [[DRV]] After item_done()
UVM_INFO write_seq.sv(37) @ 285: uvm_test_top.env_h.act_agent_h.seqr_h@@write_seq_h [[SEQ]] Response = ----------------------------------------------------------------------------------------------------------
Name                           Type                Size  Value                                            
----------------------------------------------------------------------------------------------------------
item_h                         axi4_lite_seq_item  -     @778                                             
  awaddr                       integral            32    'he4                                             
  awvalid                      integral            1     'h0                                              
  awready                      integral            1     'h0                                              
  wdata                        integral            32    'h70f5cff0                                       
  wstrb                        integral            4     'hf                                              
  wvalid                       integral            1     'h0                                              
  wready                       integral            1     'h0                                              
  bresp                        integral            3     'h0                                              
  bvalid                       integral            1     'h0                                              
  bready                       integral            1     'h0                                              
  araddr                       integral            32    'hc58c62d0                                       
  arvalid                      integral            1     'h0                                              
  arready                      integral            1     'h0                                              
  rdata                        integral            32    'h0                                              
  rresp                        integral            3     'h0                                              
  rvalid                       integral            1     'h0                                              
  rready                       integral            1     'h0                                              
  is_write                     integral            1     'h1                                              
  rst_f                        integral            1     'h0                                              
  begin_time                   time                64    215                                              
  end_time                     time                64    285                                              
  depth                        int                 32    'd2                                              
  parent sequence (name)       string              11    write_seq_h                                      
  parent sequence (full name)  string              49    uvm_test_top.env_h.act_agent_h.seqr_h.write_seq_h
  sequencer                    string              37    uvm_test_top.env_h.act_agent_h.seqr_h            
----------------------------------------------------------------------------------------------------------

UVM_INFO write_seq.sv(27) @ 295: uvm_test_top.env_h.act_agent_h.seqr_h@@write_seq_h [AWADDR_SEQ] This is write_seq : ----------------------------------------------------------------------------------------------------------
Name                           Type                Size  Value                                            
----------------------------------------------------------------------------------------------------------
item_h                         axi4_lite_seq_item  -     @826                                             
  awaddr                       integral            32    'h4c                                             
  awvalid                      integral            1     'h0                                              
  awready                      integral            1     'h0                                              
  wdata                        integral            32    'h4a1b34a4                                       
  wstrb                        integral            4     'hf                                              
  wvalid                       integral            1     'h0                                              
  wready                       integral            1     'h0                                              
  bresp                        integral            3     'h0                                              
  bvalid                       integral            1     'h0                                              
  bready                       integral            1     'h0                                              
  araddr                       integral            32    'h8fe9b5e4                                       
  arvalid                      integral            1     'h0                                              
  arready                      integral            1     'h0                                              
  rdata                        integral            32    'h0                                              
  rresp                        integral            3     'h0                                              
  rvalid                       integral            1     'h0                                              
  rready                       integral            1     'h0                                              
  is_write                     integral            1     'h1                                              
  rst_f                        integral            1     'h0                                              
  begin_time                   time                64    295                                              
  depth                        int                 32    'd2                                              
  parent sequence (name)       string              11    write_seq_h                                      
  parent sequence (full name)  string              49    uvm_test_top.env_h.act_agent_h.seqr_h.write_seq_h
  sequencer                    string              37    uvm_test_top.env_h.act_agent_h.seqr_h            
----------------------------------------------------------------------------------------------------------

UVM_INFO axi4_lite_driver.sv(54) @ 295: uvm_test_top.env_h.act_agent_h.drv_h [[DRV]] Entered wr_addr_channel
UVM_INFO axi4_lite_driver.sv(87) @ 295: uvm_test_top.env_h.act_agent_h.drv_h [[DRV]] Entered wr_data_channel
UVM_INFO design.sv(138) @ 305: reporter [DESIGN] This is DUT 70f5cff0
UVM_INFO axi4_lite_act_monitor.sv(65) @ 310: uvm_test_top.env_h.act_agent_h.mon_h [MON_AW] DW Captured : wdata 0x4a1b34a4
UVM_INFO axi4_lite_driver.sv(110) @ 315: uvm_test_top.env_h.act_agent_h.drv_h [DRV] DRV DW_CHANNEL : wdata = 0X4a1b34a4
UVM_INFO axi4_lite_driver.sv(111) @ 315: uvm_test_top.env_h.act_agent_h.drv_h [[DRV]] Exiting wr_data_channel
UVM_INFO axi4_lite_act_monitor.sv(59) @ 320: uvm_test_top.env_h.act_agent_h.mon_h [MON_AW] AW Captured : waddr 0x4c
UVM_INFO axi4_lite_driver.sv(81) @ 325: uvm_test_top.env_h.act_agent_h.drv_h [DRV] DRV AW_CHANNEL : awaddr=0x4c
UVM_INFO axi4_lite_driver.sv(82) @ 325: uvm_test_top.env_h.act_agent_h.drv_h [[DRV]] Exiting wr_addr_channel
UVM_INFO axi4_lite_driver.sv(116) @ 325: uvm_test_top.env_h.act_agent_h.drv_h [[DRV]] Entered wr_resp_channel
UVM_INFO axi4_lite_act_monitor.sv(77) @ 340: uvm_test_top.env_h.act_agent_h.mon_h [MON_WRITE_TX] WRITE_TX : awaddr = 0x4c, wdata= 0x4a1b34a4, bresp =0
UVM_INFO axi4_lite_sb.sv(45) @ 340: uvm_test_top.env_h.sb_h [[SB]] WRITE TX received : awaddr=0x4c wdata=0x4a1b34a4 bresp=0
UVM_INFO axi4_lite_sb.sv(50) @ 340: uvm_test_top.env_h.sb_h [[SB]] WRITE PASS : awaddr=0x4c wdata=0x4a1b34a4 bresp=OKAY
UVM_INFO axi4_lite_sb.sv(66) @ 340: uvm_test_top.env_h.sb_h [[SB]] WRITE ADDR ALIGN PASS : awaddr=0x4c is 4-byte aligned
UVM_INFO axi4_lite_driver.sv(143) @ 365: uvm_test_top.env_h.act_agent_h.drv_h [[DRV]] Exiting wr_resp_channel
UVM_INFO axi4_lite_driver.sv(235) @ 365: uvm_test_top.env_h.act_agent_h.drv_h [[DRV]] After item_done()
UVM_INFO write_seq.sv(37) @ 365: uvm_test_top.env_h.act_agent_h.seqr_h@@write_seq_h [[SEQ]] Response = ----------------------------------------------------------------------------------------------------------
Name                           Type                Size  Value                                            
----------------------------------------------------------------------------------------------------------
item_h                         axi4_lite_seq_item  -     @826                                             
  awaddr                       integral            32    'h4c                                             
  awvalid                      integral            1     'h0                                              
  awready                      integral            1     'h0                                              
  wdata                        integral            32    'h4a1b34a4                                       
  wstrb                        integral            4     'hf                                              
  wvalid                       integral            1     'h0                                              
  wready                       integral            1     'h0                                              
  bresp                        integral            3     'h0                                              
  bvalid                       integral            1     'h0                                              
  bready                       integral            1     'h0                                              
  araddr                       integral            32    'h8fe9b5e4                                       
  arvalid                      integral            1     'h0                                              
  arready                      integral            1     'h0                                              
  rdata                        integral            32    'h0                                              
  rresp                        integral            3     'h0                                              
  rvalid                       integral            1     'h0                                              
  rready                       integral            1     'h0                                              
  is_write                     integral            1     'h1                                              
  rst_f                        integral            1     'h0                                              
  begin_time                   time                64    295                                              
  end_time                     time                64    365                                              
  depth                        int                 32    'd2                                              
  parent sequence (name)       string              11    write_seq_h                                      
  parent sequence (full name)  string              49    uvm_test_top.env_h.act_agent_h.seqr_h.write_seq_h
  sequencer                    string              37    uvm_test_top.env_h.act_agent_h.seqr_h            
----------------------------------------------------------------------------------------------------------

UVM_INFO write_seq.sv(27) @ 375: uvm_test_top.env_h.act_agent_h.seqr_h@@write_seq_h [AWADDR_SEQ] This is write_seq : ----------------------------------------------------------------------------------------------------------
Name                           Type                Size  Value                                            
----------------------------------------------------------------------------------------------------------
item_h                         axi4_lite_seq_item  -     @874                                             
  awaddr                       integral            32    'h84                                             
  awvalid                      integral            1     'h0                                              
  awready                      integral            1     'h0                                              
  wdata                        integral            32    'h405bc50e                                       
  wstrb                        integral            4     'hf                                              
  wvalid                       integral            1     'h0                                              
  wready                       integral            1     'h0                                              
  bresp                        integral            3     'h0                                              
  bvalid                       integral            1     'h0                                              
  bready                       integral            1     'h0                                              
  araddr                       integral            32    'h5b918718                                       
  arvalid                      integral            1     'h0                                              
  arready                      integral            1     'h0                                              
  rdata                        integral            32    'h0                                              
  rresp                        integral            3     'h0                                              
  rvalid                       integral            1     'h0                                              
  rready                       integral            1     'h0                                              
  is_write                     integral            1     'h1                                              
  rst_f                        integral            1     'h0                                              
  begin_time                   time                64    375                                              
  depth                        int                 32    'd2                                              
  parent sequence (name)       string              11    write_seq_h                                      
  parent sequence (full name)  string              49    uvm_test_top.env_h.act_agent_h.seqr_h.write_seq_h
  sequencer                    string              37    uvm_test_top.env_h.act_agent_h.seqr_h            
----------------------------------------------------------------------------------------------------------

UVM_INFO axi4_lite_driver.sv(54) @ 375: uvm_test_top.env_h.act_agent_h.drv_h [[DRV]] Entered wr_addr_channel
UVM_INFO axi4_lite_driver.sv(87) @ 375: uvm_test_top.env_h.act_agent_h.drv_h [[DRV]] Entered wr_data_channel
UVM_INFO design.sv(138) @ 385: reporter [DESIGN] This is DUT 4a1b34a4
UVM_INFO axi4_lite_act_monitor.sv(65) @ 390: uvm_test_top.env_h.act_agent_h.mon_h [MON_AW] DW Captured : wdata 0x405bc50e
UVM_INFO axi4_lite_driver.sv(110) @ 395: uvm_test_top.env_h.act_agent_h.drv_h [DRV] DRV DW_CHANNEL : wdata = 0X405bc50e
UVM_INFO axi4_lite_driver.sv(111) @ 395: uvm_test_top.env_h.act_agent_h.drv_h [[DRV]] Exiting wr_data_channel
UVM_INFO axi4_lite_act_monitor.sv(59) @ 400: uvm_test_top.env_h.act_agent_h.mon_h [MON_AW] AW Captured : waddr 0x84
UVM_INFO axi4_lite_driver.sv(81) @ 405: uvm_test_top.env_h.act_agent_h.drv_h [DRV] DRV AW_CHANNEL : awaddr=0x84
UVM_INFO axi4_lite_driver.sv(82) @ 405: uvm_test_top.env_h.act_agent_h.drv_h [[DRV]] Exiting wr_addr_channel
UVM_INFO axi4_lite_driver.sv(116) @ 405: uvm_test_top.env_h.act_agent_h.drv_h [[DRV]] Entered wr_resp_channel
UVM_INFO axi4_lite_act_monitor.sv(77) @ 420: uvm_test_top.env_h.act_agent_h.mon_h [MON_WRITE_TX] WRITE_TX : awaddr = 0x84, wdata= 0x405bc50e, bresp =0
UVM_INFO axi4_lite_sb.sv(45) @ 420: uvm_test_top.env_h.sb_h [[SB]] WRITE TX received : awaddr=0x84 wdata=0x405bc50e bresp=0
UVM_INFO axi4_lite_sb.sv(50) @ 420: uvm_test_top.env_h.sb_h [[SB]] WRITE PASS : awaddr=0x84 wdata=0x405bc50e bresp=OKAY
UVM_INFO axi4_lite_sb.sv(66) @ 420: uvm_test_top.env_h.sb_h [[SB]] WRITE ADDR ALIGN PASS : awaddr=0x84 is 4-byte aligned
UVM_INFO axi4_lite_driver.sv(143) @ 445: uvm_test_top.env_h.act_agent_h.drv_h [[DRV]] Exiting wr_resp_channel
UVM_INFO axi4_lite_driver.sv(235) @ 445: uvm_test_top.env_h.act_agent_h.drv_h [[DRV]] After item_done()
UVM_INFO write_seq.sv(37) @ 445: uvm_test_top.env_h.act_agent_h.seqr_h@@write_seq_h [[SEQ]] Response = ----------------------------------------------------------------------------------------------------------
Name                           Type                Size  Value                                            
----------------------------------------------------------------------------------------------------------
item_h                         axi4_lite_seq_item  -     @874                                             
  awaddr                       integral            32    'h84                                             
  awvalid                      integral            1     'h0                                              
  awready                      integral            1     'h0                                              
  wdata                        integral            32    'h405bc50e                                       
  wstrb                        integral            4     'hf                                              
  wvalid                       integral            1     'h0                                              
  wready                       integral            1     'h0                                              
  bresp                        integral            3     'h0                                              
  bvalid                       integral            1     'h0                                              
  bready                       integral            1     'h0                                              
  araddr                       integral            32    'h5b918718                                       
  arvalid                      integral            1     'h0                                              
  arready                      integral            1     'h0                                              
  rdata                        integral            32    'h0                                              
  rresp                        integral            3     'h0                                              
  rvalid                       integral            1     'h0                                              
  rready                       integral            1     'h0                                              
  is_write                     integral            1     'h1                                              
  rst_f                        integral            1     'h0                                              
  begin_time                   time                64    375                                              
  end_time                     time                64    445                                              
  depth                        int                 32    'd2                                              
  parent sequence (name)       string              11    write_seq_h                                      
  parent sequence (full name)  string              49    uvm_test_top.env_h.act_agent_h.seqr_h.write_seq_h
  sequencer                    string              37    uvm_test_top.env_h.act_agent_h.seqr_h            
----------------------------------------------------------------------------------------------------------

UVM_INFO write_seq.sv(27) @ 455: uvm_test_top.env_h.act_agent_h.seqr_h@@write_seq_h [AWADDR_SEQ] This is write_seq : ----------------------------------------------------------------------------------------------------------
Name                           Type                Size  Value                                            
----------------------------------------------------------------------------------------------------------
item_h                         axi4_lite_seq_item  -     @922                                             
  awaddr                       integral            32    'hfc                                             
  awvalid                      integral            1     'h0                                              
  awready                      integral            1     'h0                                              
  wdata                        integral            32    'hde2ab98a                                       
  wstrb                        integral            4     'hf                                              
  wvalid                       integral            1     'h0                                              
  wready                       integral            1     'h0                                              
  bresp                        integral            3     'h0                                              
  bvalid                       integral            1     'h0                                              
  bready                       integral            1     'h0                                              
  araddr                       integral            32    'hcfdbf2c8                                       
  arvalid                      integral            1     'h0                                              
  arready                      integral            1     'h0                                              
  rdata                        integral            32    'h0                                              
  rresp                        integral            3     'h0                                              
  rvalid                       integral            1     'h0                                              
  rready                       integral            1     'h0                                              
  is_write                     integral            1     'h1                                              
  rst_f                        integral            1     'h0                                              
  begin_time                   time                64    455                                              
  depth                        int                 32    'd2                                              
  parent sequence (name)       string              11    write_seq_h                                      
  parent sequence (full name)  string              49    uvm_test_top.env_h.act_agent_h.seqr_h.write_seq_h
  sequencer                    string              37    uvm_test_top.env_h.act_agent_h.seqr_h            
----------------------------------------------------------------------------------------------------------

UVM_INFO axi4_lite_driver.sv(54) @ 455: uvm_test_top.env_h.act_agent_h.drv_h [[DRV]] Entered wr_addr_channel
UVM_INFO axi4_lite_driver.sv(87) @ 455: uvm_test_top.env_h.act_agent_h.drv_h [[DRV]] Entered wr_data_channel
UVM_INFO design.sv(138) @ 465: reporter [DESIGN] This is DUT 405bc50e
UVM_INFO axi4_lite_act_monitor.sv(65) @ 470: uvm_test_top.env_h.act_agent_h.mon_h [MON_AW] DW Captured : wdata 0xde2ab98a
UVM_INFO axi4_lite_driver.sv(110) @ 475: uvm_test_top.env_h.act_agent_h.drv_h [DRV] DRV DW_CHANNEL : wdata = 0Xde2ab98a
UVM_INFO axi4_lite_driver.sv(111) @ 475: uvm_test_top.env_h.act_agent_h.drv_h [[DRV]] Exiting wr_data_channel
UVM_INFO axi4_lite_act_monitor.sv(59) @ 480: uvm_test_top.env_h.act_agent_h.mon_h [MON_AW] AW Captured : waddr 0xfc
UVM_INFO axi4_lite_driver.sv(81) @ 485: uvm_test_top.env_h.act_agent_h.drv_h [DRV] DRV AW_CHANNEL : awaddr=0xfc
UVM_INFO axi4_lite_driver.sv(82) @ 485: uvm_test_top.env_h.act_agent_h.drv_h [[DRV]] Exiting wr_addr_channel
UVM_INFO axi4_lite_driver.sv(116) @ 485: uvm_test_top.env_h.act_agent_h.drv_h [[DRV]] Entered wr_resp_channel
UVM_INFO axi4_lite_act_monitor.sv(77) @ 500: uvm_test_top.env_h.act_agent_h.mon_h [MON_WRITE_TX] WRITE_TX : awaddr = 0xfc, wdata= 0xde2ab98a, bresp =0
UVM_INFO axi4_lite_sb.sv(45) @ 500: uvm_test_top.env_h.sb_h [[SB]] WRITE TX received : awaddr=0xfc wdata=0xde2ab98a bresp=0
UVM_INFO axi4_lite_sb.sv(50) @ 500: uvm_test_top.env_h.sb_h [[SB]] WRITE PASS : awaddr=0xfc wdata=0xde2ab98a bresp=OKAY
UVM_INFO axi4_lite_sb.sv(66) @ 500: uvm_test_top.env_h.sb_h [[SB]] WRITE ADDR ALIGN PASS : awaddr=0xfc is 4-byte aligned
UVM_INFO axi4_lite_driver.sv(143) @ 525: uvm_test_top.env_h.act_agent_h.drv_h [[DRV]] Exiting wr_resp_channel
UVM_INFO axi4_lite_driver.sv(235) @ 525: uvm_test_top.env_h.act_agent_h.drv_h [[DRV]] After item_done()
UVM_INFO write_seq.sv(37) @ 525: uvm_test_top.env_h.act_agent_h.seqr_h@@write_seq_h [[SEQ]] Response = ----------------------------------------------------------------------------------------------------------
Name                           Type                Size  Value                                            
----------------------------------------------------------------------------------------------------------
item_h                         axi4_lite_seq_item  -     @922                                             
  awaddr                       integral            32    'hfc                                             
  awvalid                      integral            1     'h0                                              
  awready                      integral            1     'h0                                              
  wdata                        integral            32    'hde2ab98a                                       
  wstrb                        integral            4     'hf                                              
  wvalid                       integral            1     'h0                                              
  wready                       integral            1     'h0                                              
  bresp                        integral            3     'h0                                              
  bvalid                       integral            1     'h0                                              
  bready                       integral            1     'h0                                              
  araddr                       integral            32    'hcfdbf2c8                                       
  arvalid                      integral            1     'h0                                              
  arready                      integral            1     'h0                                              
  rdata                        integral            32    'h0                                              
  rresp                        integral            3     'h0                                              
  rvalid                       integral            1     'h0                                              
  rready                       integral            1     'h0                                              
  is_write                     integral            1     'h1                                              
  rst_f                        integral            1     'h0                                              
  begin_time                   time                64    455                                              
  end_time                     time                64    525                                              
  depth                        int                 32    'd2                                              
  parent sequence (name)       string              11    write_seq_h                                      
  parent sequence (full name)  string              49    uvm_test_top.env_h.act_agent_h.seqr_h.write_seq_h
  sequencer                    string              37    uvm_test_top.env_h.act_agent_h.seqr_h            
----------------------------------------------------------------------------------------------------------

UVM_INFO write_seq.sv(27) @ 535: uvm_test_top.env_h.act_agent_h.seqr_h@@write_seq_h [AWADDR_SEQ] This is write_seq : ----------------------------------------------------------------------------------------------------------
Name                           Type                Size  Value                                            
----------------------------------------------------------------------------------------------------------
item_h                         axi4_lite_seq_item  -     @970                                             
  awaddr                       integral            32    'h60                                             
  awvalid                      integral            1     'h0                                              
  awready                      integral            1     'h0                                              
  wdata                        integral            32    'h1c07490c                                       
  wstrb                        integral            4     'hf                                              
  wvalid                       integral            1     'h0                                              
  wready                       integral            1     'h0                                              
  bresp                        integral            3     'h0                                              
  bvalid                       integral            1     'h0                                              
  bready                       integral            1     'h0                                              
  araddr                       integral            32    'h672125c4                                       
  arvalid                      integral            1     'h0                                              
  arready                      integral            1     'h0                                              
  rdata                        integral            32    'h0                                              
  rresp                        integral            3     'h0                                              
  rvalid                       integral            1     'h0                                              
  rready                       integral            1     'h0                                              
  is_write                     integral            1     'h1                                              
  rst_f                        integral            1     'h0                                              
  begin_time                   time                64    535                                              
  depth                        int                 32    'd2                                              
  parent sequence (name)       string              11    write_seq_h                                      
  parent sequence (full name)  string              49    uvm_test_top.env_h.act_agent_h.seqr_h.write_seq_h
  sequencer                    string              37    uvm_test_top.env_h.act_agent_h.seqr_h            
----------------------------------------------------------------------------------------------------------

UVM_INFO axi4_lite_driver.sv(54) @ 535: uvm_test_top.env_h.act_agent_h.drv_h [[DRV]] Entered wr_addr_channel
UVM_INFO axi4_lite_driver.sv(87) @ 535: uvm_test_top.env_h.act_agent_h.drv_h [[DRV]] Entered wr_data_channel
UVM_INFO design.sv(138) @ 545: reporter [DESIGN] This is DUT de2ab98a
UVM_INFO axi4_lite_act_monitor.sv(65) @ 550: uvm_test_top.env_h.act_agent_h.mon_h [MON_AW] DW Captured : wdata 0x1c07490c
UVM_INFO axi4_lite_driver.sv(110) @ 555: uvm_test_top.env_h.act_agent_h.drv_h [DRV] DRV DW_CHANNEL : wdata = 0X1c07490c
UVM_INFO axi4_lite_driver.sv(111) @ 555: uvm_test_top.env_h.act_agent_h.drv_h [[DRV]] Exiting wr_data_channel
UVM_INFO axi4_lite_act_monitor.sv(59) @ 560: uvm_test_top.env_h.act_agent_h.mon_h [MON_AW] AW Captured : waddr 0x60
UVM_INFO axi4_lite_driver.sv(81) @ 565: uvm_test_top.env_h.act_agent_h.drv_h [DRV] DRV AW_CHANNEL : awaddr=0x60
UVM_INFO axi4_lite_driver.sv(82) @ 565: uvm_test_top.env_h.act_agent_h.drv_h [[DRV]] Exiting wr_addr_channel
UVM_INFO axi4_lite_driver.sv(116) @ 565: uvm_test_top.env_h.act_agent_h.drv_h [[DRV]] Entered wr_resp_channel
UVM_INFO axi4_lite_act_monitor.sv(77) @ 580: uvm_test_top.env_h.act_agent_h.mon_h [MON_WRITE_TX] WRITE_TX : awaddr = 0x60, wdata= 0x1c07490c, bresp =0
UVM_INFO axi4_lite_sb.sv(45) @ 580: uvm_test_top.env_h.sb_h [[SB]] WRITE TX received : awaddr=0x60 wdata=0x1c07490c bresp=0
UVM_INFO axi4_lite_sb.sv(50) @ 580: uvm_test_top.env_h.sb_h [[SB]] WRITE PASS : awaddr=0x60 wdata=0x1c07490c bresp=OKAY
UVM_INFO axi4_lite_sb.sv(66) @ 580: uvm_test_top.env_h.sb_h [[SB]] WRITE ADDR ALIGN PASS : awaddr=0x60 is 4-byte aligned
UVM_INFO axi4_lite_driver.sv(143) @ 605: uvm_test_top.env_h.act_agent_h.drv_h [[DRV]] Exiting wr_resp_channel
UVM_INFO axi4_lite_driver.sv(235) @ 605: uvm_test_top.env_h.act_agent_h.drv_h [[DRV]] After item_done()
UVM_INFO write_seq.sv(37) @ 605: uvm_test_top.env_h.act_agent_h.seqr_h@@write_seq_h [[SEQ]] Response = ----------------------------------------------------------------------------------------------------------
Name                           Type                Size  Value                                            
----------------------------------------------------------------------------------------------------------
item_h                         axi4_lite_seq_item  -     @970                                             
  awaddr                       integral            32    'h60                                             
  awvalid                      integral            1     'h0                                              
  awready                      integral            1     'h0                                              
  wdata                        integral            32    'h1c07490c                                       
  wstrb                        integral            4     'hf                                              
  wvalid                       integral            1     'h0                                              
  wready                       integral            1     'h0                                              
  bresp                        integral            3     'h0                                              
  bvalid                       integral            1     'h0                                              
  bready                       integral            1     'h0                                              
  araddr                       integral            32    'h672125c4                                       
  arvalid                      integral            1     'h0                                              
  arready                      integral            1     'h0                                              
  rdata                        integral            32    'h0                                              
  rresp                        integral            3     'h0                                              
  rvalid                       integral            1     'h0                                              
  rready                       integral            1     'h0                                              
  is_write                     integral            1     'h1                                              
  rst_f                        integral            1     'h0                                              
  begin_time                   time                64    535                                              
  end_time                     time                64    605                                              
  depth                        int                 32    'd2                                              
  parent sequence (name)       string              11    write_seq_h                                      
  parent sequence (full name)  string              49    uvm_test_top.env_h.act_agent_h.seqr_h.write_seq_h
  sequencer                    string              37    uvm_test_top.env_h.act_agent_h.seqr_h            
----------------------------------------------------------------------------------------------------------

UVM_INFO write_seq.sv(27) @ 615: uvm_test_top.env_h.act_agent_h.seqr_h@@write_seq_h [AWADDR_SEQ] This is write_seq : ----------------------------------------------------------------------------------------------------------
Name                           Type                Size  Value                                            
----------------------------------------------------------------------------------------------------------
item_h                         axi4_lite_seq_item  -     @1018                                            
  awaddr                       integral            32    'h94                                             
  awvalid                      integral            1     'h0                                              
  awready                      integral            1     'h0                                              
  wdata                        integral            32    'hd7ca758a                                       
  wstrb                        integral            4     'hf                                              
  wvalid                       integral            1     'h0                                              
  wready                       integral            1     'h0                                              
  bresp                        integral            3     'h0                                              
  bvalid                       integral            1     'h0                                              
  bready                       integral            1     'h0                                              
  araddr                       integral            32    'h2a1c3abc                                       
  arvalid                      integral            1     'h0                                              
  arready                      integral            1     'h0                                              
  rdata                        integral            32    'h0                                              
  rresp                        integral            3     'h0                                              
  rvalid                       integral            1     'h0                                              
  rready                       integral            1     'h0                                              
  is_write                     integral            1     'h1                                              
