Command: vcs -full64 -sverilog -R -debug_access+all -ntb_opts uvm-1.2 -f files.f \
-l debug.log -cm line+tgl+cond+fsm+branch+assert -kdb
                         Chronologic VCS (TM)
         Version W-2024.09_Full64 -- Thu May 21 23:14:19 2026

                    Copyright (c) 1991 - 2024 Synopsys, Inc.
   This software and the associated documentation are proprietary to Synopsys,
 Inc. This software may only be used in accordance with the terms and conditions
 of a written license agreement with Synopsys, Inc. All other use, reproduction,
   or distribution of this software is strictly prohibited.  Licensed Products
     communicate with Synopsys servers for the purpose of providing software
    updates, detecting software piracy and verifying that customers are using
    Licensed Products in conformity with the applicable License Key for such
  Licensed Products. Synopsys will use information gathered in connection with
    this process to deliver software updates and pursue software pirates and
                                   infringers.

 Inclusivity & Diversity - Visit SolvNetPlus to read the "Synopsys Statement on
            Inclusivity and Diversity" (Refer to article 000036315 at
                        https://solvnetplus.synopsys.com)

Parsing design file '/app/synopsys/installers/vcs/W-2024.09//etc/uvm-1.2/uvm_pkg.sv'
Parsing included file '/app/synopsys/installers/vcs/W-2024.09//etc/uvm-1.2/uvm_macros.svh'.
Parsing included file '/app/synopsys/installers/vcs/W-2024.09//etc/uvm-1.2/macros/uvm_version_defines.svh'.
Back to file '/app/synopsys/installers/vcs/W-2024.09//etc/uvm-1.2/uvm_macros.svh'.
Parsing included file '/app/synopsys/installers/vcs/W-2024.09//etc/uvm-1.2/macros/uvm_global_defines.svh'.
Back to file '/app/synopsys/installers/vcs/W-2024.09//etc/uvm-1.2/uvm_macros.svh'.
Parsing included file '/app/synopsys/installers/vcs/W-2024.09//etc/uvm-1.2/macros/snps_macros.svp'.
Back to file '/app/synopsys/installers/vcs/W-2024.09//etc/uvm-1.2/uvm_macros.svh'.
Parsing included file '/app/synopsys/installers/vcs/W-2024.09//etc/uvm-1.2/macros/uvm_message_defines.svh'.
Back to file '/app/synopsys/installers/vcs/W-2024.09//etc/uvm-1.2/uvm_macros.svh'.
Parsing included file '/app/synopsys/installers/vcs/W-2024.09//etc/uvm-1.2/macros/uvm_phase_defines.svh'.
Back to file '/app/synopsys/installers/vcs/W-2024.09//etc/uvm-1.2/uvm_macros.svh'.
Parsing included file '/app/synopsys/installers/vcs/W-2024.09//etc/uvm-1.2/macros/uvm_object_defines.svh'.
Back to file '/app/synopsys/installers/vcs/W-2024.09//etc/uvm-1.2/uvm_macros.svh'.
Parsing included file '/app/synopsys/installers/vcs/W-2024.09//etc/uvm-1.2/macros/uvm_printer_defines.svh'.
Back to file '/app/synopsys/installers/vcs/W-2024.09//etc/uvm-1.2/uvm_macros.svh'.
Parsing included file '/app/synopsys/installers/vcs/W-2024.09//etc/uvm-1.2/macros/uvm_tlm_defines.svh'.
Parsing included file '/app/synopsys/installers/vcs/W-2024.09//etc/uvm-1.2/tlm1/uvm_tlm_imps.svh'.
Back to file '/app/synopsys/installers/vcs/W-2024.09//etc/uvm-1.2/macros/uvm_tlm_defines.svh'.
Back to file '/app/synopsys/installers/vcs/W-2024.09//etc/uvm-1.2/uvm_macros.svh'.
Parsing included file '/app/synopsys/installers/vcs/W-2024.09//etc/uvm-1.2/macros/uvm_sequence_defines.svh'.
Back to file '/app/synopsys/installers/vcs/W-2024.09//etc/uvm-1.2/uvm_macros.svh'.
Parsing included file '/app/synopsys/installers/vcs/W-2024.09//etc/uvm-1.2/macros/uvm_callback_defines.svh'.
Back to file '/app/synopsys/installers/vcs/W-2024.09//etc/uvm-1.2/uvm_macros.svh'.
Parsing included file '/app/synopsys/installers/vcs/W-2024.09//etc/uvm-1.2/macros/uvm_reg_defines.svh'.
Back to file '/app/synopsys/installers/vcs/W-2024.09//etc/uvm-1.2/uvm_macros.svh'.
Parsing included file '/app/synopsys/installers/vcs/W-2024.09//etc/uvm-1.2/macros/uvm_deprecated_defines.svh'.
Back to file '/app/synopsys/installers/vcs/W-2024.09//etc/uvm-1.2/uvm_macros.svh'.
Back to file '/app/synopsys/installers/vcs/W-2024.09//etc/uvm-1.2/uvm_pkg.sv'.
Parsing included file '/app/synopsys/installers/vcs/W-2024.09//etc/uvm-1.2/dpi/uvm_dpi.svh'.
Parsing included file '/app/synopsys/installers/vcs/W-2024.09//etc/uvm-1.2/dpi/uvm_hdl.svh'.
Back to file '/app/synopsys/installers/vcs/W-2024.09//etc/uvm-1.2/dpi/uvm_dpi.svh'.
Parsing included file '/app/synopsys/installers/vcs/W-2024.09//etc/uvm-1.2/dpi/uvm_svcmd_dpi.svh'.
Back to file '/app/synopsys/installers/vcs/W-2024.09//etc/uvm-1.2/dpi/uvm_dpi.svh'.
Parsing included file '/app/synopsys/installers/vcs/W-2024.09//etc/uvm-1.2/dpi/uvm_regex.svh'.
Back to file '/app/synopsys/installers/vcs/W-2024.09//etc/uvm-1.2/dpi/uvm_dpi.svh'.
Back to file '/app/synopsys/installers/vcs/W-2024.09//etc/uvm-1.2/uvm_pkg.sv'.
Parsing included file '/app/synopsys/installers/vcs/W-2024.09//etc/uvm-1.2/base/uvm_base.svh'.
Parsing included file '/app/synopsys/installers/vcs/W-2024.09//etc/uvm-1.2/base/uvm_coreservice.svh'.
Back to file '/app/synopsys/installers/vcs/W-2024.09//etc/uvm-1.2/base/uvm_base.svh'.
Parsing included file '/app/synopsys/installers/vcs/W-2024.09//etc/uvm-1.2/base/uvm_version.svh'.
Back to file '/app/synopsys/installers/vcs/W-2024.09//etc/uvm-1.2/base/uvm_base.svh'.
Parsing included file '/app/synopsys/installers/vcs/W-2024.09//etc/uvm-1.2/base/uvm_object_globals.svh'.
Back to file '/app/synopsys/installers/vcs/W-2024.09//etc/uvm-1.2/base/uvm_base.svh'.
Parsing included file '/app/synopsys/installers/vcs/W-2024.09//etc/uvm-1.2/base/uvm_misc.svh'.
Back to file '/app/synopsys/installers/vcs/W-2024.09//etc/uvm-1.2/base/uvm_base.svh'.
Parsing included file '/app/synopsys/installers/vcs/W-2024.09//etc/uvm-1.2/base/uvm_object.svh'.
Back to file '/app/synopsys/installers/vcs/W-2024.09//etc/uvm-1.2/base/uvm_base.svh'.
Parsing included file '/app/synopsys/installers/vcs/W-2024.09//etc/uvm-1.2/base/uvm_pool.svh'.
Back to file '/app/synopsys/installers/vcs/W-2024.09//etc/uvm-1.2/base/uvm_base.svh'.
Parsing included file '/app/synopsys/installers/vcs/W-2024.09//etc/uvm-1.2/base/uvm_queue.svh'.
Back to file '/app/synopsys/installers/vcs/W-2024.09//etc/uvm-1.2/base/uvm_base.svh'.
Parsing included file '/app/synopsys/installers/vcs/W-2024.09//etc/uvm-1.2/base/uvm_factory.svh'.
Back to file '/app/synopsys/installers/vcs/W-2024.09//etc/uvm-1.2/base/uvm_base.svh'.
Parsing included file '/app/synopsys/installers/vcs/W-2024.09//etc/uvm-1.2/base/uvm_registry.svh'.
Back to file '/app/synopsys/installers/vcs/W-2024.09//etc/uvm-1.2/base/uvm_base.svh'.
Parsing included file '/app/synopsys/installers/vcs/W-2024.09//etc/uvm-1.2/base/uvm_spell_chkr.svh'.
Back to file '/app/synopsys/installers/vcs/W-2024.09//etc/uvm-1.2/base/uvm_base.svh'.
Parsing included file '/app/synopsys/installers/vcs/W-2024.09//etc/uvm-1.2/base/uvm_resource.svh'.
Back to file '/app/synopsys/installers/vcs/W-2024.09//etc/uvm-1.2/base/uvm_base.svh'.
Parsing included file '/app/synopsys/installers/vcs/W-2024.09//etc/uvm-1.2/base/uvm_resource_specializations.svh'.
Back to file '/app/synopsys/installers/vcs/W-2024.09//etc/uvm-1.2/base/uvm_base.svh'.
Parsing included file '/app/synopsys/installers/vcs/W-2024.09//etc/uvm-1.2/base/uvm_resource_db.svh'.
Back to file '/app/synopsys/installers/vcs/W-2024.09//etc/uvm-1.2/base/uvm_base.svh'.
Parsing included file '/app/synopsys/installers/vcs/W-2024.09//etc/uvm-1.2/base/uvm_config_db.svh'.
Back to file '/app/synopsys/installers/vcs/W-2024.09//etc/uvm-1.2/base/uvm_base.svh'.
Parsing included file '/app/synopsys/installers/vcs/W-2024.09//etc/uvm-1.2/base/uvm_printer.svh'.
Back to file '/app/synopsys/installers/vcs/W-2024.09//etc/uvm-1.2/base/uvm_base.svh'.
Parsing included file '/app/synopsys/installers/vcs/W-2024.09//etc/uvm-1.2/base/uvm_comparer.svh'.
Back to file '/app/synopsys/installers/vcs/W-2024.09//etc/uvm-1.2/base/uvm_base.svh'.
Parsing included file '/app/synopsys/installers/vcs/W-2024.09//etc/uvm-1.2/base/uvm_packer.svh'.
Back to file '/app/synopsys/installers/vcs/W-2024.09//etc/uvm-1.2/base/uvm_base.svh'.
Parsing included file '/app/synopsys/installers/vcs/W-2024.09//etc/uvm-1.2/base/uvm_links.svh'.
Back to file '/app/synopsys/installers/vcs/W-2024.09//etc/uvm-1.2/base/uvm_base.svh'.
Parsing included file '/app/synopsys/installers/vcs/W-2024.09//etc/uvm-1.2/base/uvm_tr_database.svh'.
Back to file '/app/synopsys/installers/vcs/W-2024.09//etc/uvm-1.2/base/uvm_base.svh'.
Parsing included file '/app/synopsys/installers/vcs/W-2024.09//etc/uvm-1.2/base/uvm_tr_stream.svh'.
Back to file '/app/synopsys/installers/vcs/W-2024.09//etc/uvm-1.2/base/uvm_base.svh'.
Parsing included file '/app/synopsys/installers/vcs/W-2024.09//etc/uvm-1.2/base/uvm_recorder.svh'.
Back to file '/app/synopsys/installers/vcs/W-2024.09//etc/uvm-1.2/base/uvm_base.svh'.
Parsing included file '/app/synopsys/installers/vcs/W-2024.09//etc/uvm-1.2/base/uvm_event_callback.svh'.
Back to file '/app/synopsys/installers/vcs/W-2024.09//etc/uvm-1.2/base/uvm_base.svh'.
Parsing included file '/app/synopsys/installers/vcs/W-2024.09//etc/uvm-1.2/base/uvm_event.svh'.
Back to file '/app/synopsys/installers/vcs/W-2024.09//etc/uvm-1.2/base/uvm_base.svh'.
Parsing included file '/app/synopsys/installers/vcs/W-2024.09//etc/uvm-1.2/base/uvm_barrier.svh'.
Back to file '/app/synopsys/installers/vcs/W-2024.09//etc/uvm-1.2/base/uvm_base.svh'.
Parsing included file '/app/synopsys/installers/vcs/W-2024.09//etc/uvm-1.2/base/uvm_callback.svh'.
Parsing included file '/app/synopsys/installers/vcs/W-2024.09//etc/uvm-1.2/uvm_macros.svh'.
Back to file '/app/synopsys/installers/vcs/W-2024.09//etc/uvm-1.2/base/uvm_callback.svh'.
Back to file '/app/synopsys/installers/vcs/W-2024.09//etc/uvm-1.2/base/uvm_base.svh'.
Parsing included file '/app/synopsys/installers/vcs/W-2024.09//etc/uvm-1.2/base/uvm_report_message.svh'.
Back to file '/app/synopsys/installers/vcs/W-2024.09//etc/uvm-1.2/base/uvm_base.svh'.
Parsing included file '/app/synopsys/installers/vcs/W-2024.09//etc/uvm-1.2/base/uvm_report_catcher.svh'.
Back to file '/app/synopsys/installers/vcs/W-2024.09//etc/uvm-1.2/base/uvm_base.svh'.
Parsing included file '/app/synopsys/installers/vcs/W-2024.09//etc/uvm-1.2/base/uvm_report_server.svh'.
Back to file '/app/synopsys/installers/vcs/W-2024.09//etc/uvm-1.2/base/uvm_base.svh'.
Parsing included file '/app/synopsys/installers/vcs/W-2024.09//etc/uvm-1.2/base/uvm_report_handler.svh'.
Back to file '/app/synopsys/installers/vcs/W-2024.09//etc/uvm-1.2/base/uvm_base.svh'.
Parsing included file '/app/synopsys/installers/vcs/W-2024.09//etc/uvm-1.2/base/uvm_report_object.svh'.
Back to file '/app/synopsys/installers/vcs/W-2024.09//etc/uvm-1.2/base/uvm_base.svh'.
Parsing included file '/app/synopsys/installers/vcs/W-2024.09//etc/uvm-1.2/base/uvm_transaction.svh'.
Back to file '/app/synopsys/installers/vcs/W-2024.09//etc/uvm-1.2/base/uvm_base.svh'.
Parsing included file '/app/synopsys/installers/vcs/W-2024.09//etc/uvm-1.2/base/uvm_phase.svh'.
Back to file '/app/synopsys/installers/vcs/W-2024.09//etc/uvm-1.2/base/uvm_base.svh'.
Parsing included file '/app/synopsys/installers/vcs/W-2024.09//etc/uvm-1.2/base/uvm_domain.svh'.
Back to file '/app/synopsys/installers/vcs/W-2024.09//etc/uvm-1.2/base/uvm_base.svh'.
Parsing included file '/app/synopsys/installers/vcs/W-2024.09//etc/uvm-1.2/base/uvm_bottomup_phase.svh'.
Back to file '/app/synopsys/installers/vcs/W-2024.09//etc/uvm-1.2/base/uvm_base.svh'.
Parsing included file '/app/synopsys/installers/vcs/W-2024.09//etc/uvm-1.2/base/uvm_topdown_phase.svh'.
Back to file '/app/synopsys/installers/vcs/W-2024.09//etc/uvm-1.2/base/uvm_base.svh'.
Parsing included file '/app/synopsys/installers/vcs/W-2024.09//etc/uvm-1.2/base/uvm_task_phase.svh'.
Back to file '/app/synopsys/installers/vcs/W-2024.09//etc/uvm-1.2/base/uvm_base.svh'.
Parsing included file '/app/synopsys/installers/vcs/W-2024.09//etc/uvm-1.2/base/uvm_common_phases.svh'.
Back to file '/app/synopsys/installers/vcs/W-2024.09//etc/uvm-1.2/base/uvm_base.svh'.
Parsing included file '/app/synopsys/installers/vcs/W-2024.09//etc/uvm-1.2/base/uvm_runtime_phases.svh'.
Back to file '/app/synopsys/installers/vcs/W-2024.09//etc/uvm-1.2/base/uvm_base.svh'.
Parsing included file '/app/synopsys/installers/vcs/W-2024.09//etc/uvm-1.2/base/uvm_component.svh'.
Parsing included file '/app/synopsys/installers/vcs/W-2024.09//etc/uvm-1.2/base/uvm_root.svh'.
Back to file '/app/synopsys/installers/vcs/W-2024.09//etc/uvm-1.2/base/uvm_component.svh'.
Back to file '/app/synopsys/installers/vcs/W-2024.09//etc/uvm-1.2/base/uvm_base.svh'.
Parsing included file '/app/synopsys/installers/vcs/W-2024.09//etc/uvm-1.2/base/uvm_objection.svh'.
Back to file '/app/synopsys/installers/vcs/W-2024.09//etc/uvm-1.2/base/uvm_base.svh'.
Parsing included file '/app/synopsys/installers/vcs/W-2024.09//etc/uvm-1.2/base/uvm_heartbeat.svh'.
Back to file '/app/synopsys/installers/vcs/W-2024.09//etc/uvm-1.2/base/uvm_base.svh'.
Parsing included file '/app/synopsys/installers/vcs/W-2024.09//etc/uvm-1.2/base/uvm_globals.svh'.
Back to file '/app/synopsys/installers/vcs/W-2024.09//etc/uvm-1.2/base/uvm_base.svh'.
Parsing included file '/app/synopsys/installers/vcs/W-2024.09//etc/uvm-1.2/base/uvm_cmdline_processor.svh'.
Back to file '/app/synopsys/installers/vcs/W-2024.09//etc/uvm-1.2/base/uvm_base.svh'.
Parsing included file '/app/synopsys/installers/vcs/W-2024.09//etc/uvm-1.2/base/uvm_traversal.svh'.
Back to file '/app/synopsys/installers/vcs/W-2024.09//etc/uvm-1.2/base/uvm_base.svh'.
Back to file '/app/synopsys/installers/vcs/W-2024.09//etc/uvm-1.2/uvm_pkg.sv'.
Parsing included file '/app/synopsys/installers/vcs/W-2024.09//etc/uvm-1.2/dap/uvm_dap.svh'.
Parsing included file '/app/synopsys/installers/vcs/W-2024.09//etc/uvm-1.2/dap/uvm_set_get_dap_base.svh'.
Back to file '/app/synopsys/installers/vcs/W-2024.09//etc/uvm-1.2/dap/uvm_dap.svh'.
Parsing included file '/app/synopsys/installers/vcs/W-2024.09//etc/uvm-1.2/dap/uvm_simple_lock_dap.svh'.
Back to file '/app/synopsys/installers/vcs/W-2024.09//etc/uvm-1.2/dap/uvm_dap.svh'.
Parsing included file '/app/synopsys/installers/vcs/W-2024.09//etc/uvm-1.2/dap/uvm_get_to_lock_dap.svh'.
Back to file '/app/synopsys/installers/vcs/W-2024.09//etc/uvm-1.2/dap/uvm_dap.svh'.
Parsing included file '/app/synopsys/installers/vcs/W-2024.09//etc/uvm-1.2/dap/uvm_set_before_get_dap.svh'.
Back to file '/app/synopsys/installers/vcs/W-2024.09//etc/uvm-1.2/dap/uvm_dap.svh'.
Back to file '/app/synopsys/installers/vcs/W-2024.09//etc/uvm-1.2/uvm_pkg.sv'.
Parsing included file '/app/synopsys/installers/vcs/W-2024.09//etc/uvm-1.2/tlm1/uvm_tlm.svh'.
Parsing included file '/app/synopsys/installers/vcs/W-2024.09//etc/uvm-1.2/tlm1/uvm_tlm_ifs.svh'.
Back to file '/app/synopsys/installers/vcs/W-2024.09//etc/uvm-1.2/tlm1/uvm_tlm.svh'.
Parsing included file '/app/synopsys/installers/vcs/W-2024.09//etc/uvm-1.2/tlm1/uvm_sqr_ifs.svh'.
Back to file '/app/synopsys/installers/vcs/W-2024.09//etc/uvm-1.2/tlm1/uvm_tlm.svh'.
Parsing included file '/app/synopsys/installers/vcs/W-2024.09//etc/uvm-1.2/base/uvm_port_base.svh'.
Back to file '/app/synopsys/installers/vcs/W-2024.09//etc/uvm-1.2/tlm1/uvm_tlm.svh'.
Parsing included file '/app/synopsys/installers/vcs/W-2024.09//etc/uvm-1.2/tlm1/uvm_tlm_imps.svh'.
Back to file '/app/synopsys/installers/vcs/W-2024.09//etc/uvm-1.2/tlm1/uvm_tlm.svh'.
Parsing included file '/app/synopsys/installers/vcs/W-2024.09//etc/uvm-1.2/tlm1/uvm_imps.svh'.
Back to file '/app/synopsys/installers/vcs/W-2024.09//etc/uvm-1.2/tlm1/uvm_tlm.svh'.
Parsing included file '/app/synopsys/installers/vcs/W-2024.09//etc/uvm-1.2/tlm1/uvm_ports.svh'.
Back to file '/app/synopsys/installers/vcs/W-2024.09//etc/uvm-1.2/tlm1/uvm_tlm.svh'.
Parsing included file '/app/synopsys/installers/vcs/W-2024.09//etc/uvm-1.2/tlm1/uvm_exports.svh'.
Back to file '/app/synopsys/installers/vcs/W-2024.09//etc/uvm-1.2/tlm1/uvm_tlm.svh'.
Parsing included file '/app/synopsys/installers/vcs/W-2024.09//etc/uvm-1.2/tlm1/uvm_analysis_port.svh'.
Back to file '/app/synopsys/installers/vcs/W-2024.09//etc/uvm-1.2/tlm1/uvm_tlm.svh'.
Parsing included file '/app/synopsys/installers/vcs/W-2024.09//etc/uvm-1.2/tlm1/uvm_tlm_fifo_base.svh'.
Back to file '/app/synopsys/installers/vcs/W-2024.09//etc/uvm-1.2/tlm1/uvm_tlm.svh'.
Parsing included file '/app/synopsys/installers/vcs/W-2024.09//etc/uvm-1.2/tlm1/uvm_tlm_fifos.svh'.
Back to file '/app/synopsys/installers/vcs/W-2024.09//etc/uvm-1.2/tlm1/uvm_tlm.svh'.
Parsing included file '/app/synopsys/installers/vcs/W-2024.09//etc/uvm-1.2/tlm1/uvm_tlm_req_rsp.svh'.
Back to file '/app/synopsys/installers/vcs/W-2024.09//etc/uvm-1.2/tlm1/uvm_tlm.svh'.
Parsing included file '/app/synopsys/installers/vcs/W-2024.09//etc/uvm-1.2/tlm1/uvm_sqr_connections.svh'.
Back to file '/app/synopsys/installers/vcs/W-2024.09//etc/uvm-1.2/tlm1/uvm_tlm.svh'.
Back to file '/app/synopsys/installers/vcs/W-2024.09//etc/uvm-1.2/uvm_pkg.sv'.
Parsing included file '/app/synopsys/installers/vcs/W-2024.09//etc/uvm-1.2/comps/uvm_comps.svh'.
Parsing included file '/app/synopsys/installers/vcs/W-2024.09//etc/uvm-1.2/comps/uvm_pair.svh'.
Back to file '/app/synopsys/installers/vcs/W-2024.09//etc/uvm-1.2/comps/uvm_comps.svh'.
Parsing included file '/app/synopsys/installers/vcs/W-2024.09//etc/uvm-1.2/comps/uvm_policies.svh'.
Back to file '/app/synopsys/installers/vcs/W-2024.09//etc/uvm-1.2/comps/uvm_comps.svh'.
Parsing included file '/app/synopsys/installers/vcs/W-2024.09//etc/uvm-1.2/comps/uvm_in_order_comparator.svh'.
Back to file '/app/synopsys/installers/vcs/W-2024.09//etc/uvm-1.2/comps/uvm_comps.svh'.
Parsing included file '/app/synopsys/installers/vcs/W-2024.09//etc/uvm-1.2/comps/uvm_algorithmic_comparator.svh'.
Back to file '/app/synopsys/installers/vcs/W-2024.09//etc/uvm-1.2/comps/uvm_comps.svh'.
Parsing included file '/app/synopsys/installers/vcs/W-2024.09//etc/uvm-1.2/comps/uvm_random_stimulus.svh'.
Back to file '/app/synopsys/installers/vcs/W-2024.09//etc/uvm-1.2/comps/uvm_comps.svh'.
Parsing included file '/app/synopsys/installers/vcs/W-2024.09//etc/uvm-1.2/comps/uvm_subscriber.svh'.
Back to file '/app/synopsys/installers/vcs/W-2024.09//etc/uvm-1.2/comps/uvm_comps.svh'.
Parsing included file '/app/synopsys/installers/vcs/W-2024.09//etc/uvm-1.2/comps/uvm_monitor.svh'.
Back to file '/app/synopsys/installers/vcs/W-2024.09//etc/uvm-1.2/comps/uvm_comps.svh'.
Parsing included file '/app/synopsys/installers/vcs/W-2024.09//etc/uvm-1.2/comps/uvm_driver.svh'.
Back to file '/app/synopsys/installers/vcs/W-2024.09//etc/uvm-1.2/comps/uvm_comps.svh'.
Parsing included file '/app/synopsys/installers/vcs/W-2024.09//etc/uvm-1.2/comps/uvm_push_driver.svh'.
Back to file '/app/synopsys/installers/vcs/W-2024.09//etc/uvm-1.2/comps/uvm_comps.svh'.
Parsing included file '/app/synopsys/installers/vcs/W-2024.09//etc/uvm-1.2/comps/uvm_scoreboard.svh'.
Back to file '/app/synopsys/installers/vcs/W-2024.09//etc/uvm-1.2/comps/uvm_comps.svh'.
Parsing included file '/app/synopsys/installers/vcs/W-2024.09//etc/uvm-1.2/comps/uvm_agent.svh'.
Back to file '/app/synopsys/installers/vcs/W-2024.09//etc/uvm-1.2/comps/uvm_comps.svh'.
Parsing included file '/app/synopsys/installers/vcs/W-2024.09//etc/uvm-1.2/comps/uvm_env.svh'.
Back to file '/app/synopsys/installers/vcs/W-2024.09//etc/uvm-1.2/comps/uvm_comps.svh'.
Parsing included file '/app/synopsys/installers/vcs/W-2024.09//etc/uvm-1.2/comps/uvm_test.svh'.
Back to file '/app/synopsys/installers/vcs/W-2024.09//etc/uvm-1.2/comps/uvm_comps.svh'.
Back to file '/app/synopsys/installers/vcs/W-2024.09//etc/uvm-1.2/uvm_pkg.sv'.
Parsing included file '/app/synopsys/installers/vcs/W-2024.09//etc/uvm-1.2/seq/uvm_seq.svh'.
Parsing included file '/app/synopsys/installers/vcs/W-2024.09//etc/uvm-1.2/seq/uvm_sequence_item.svh'.
Back to file '/app/synopsys/installers/vcs/W-2024.09//etc/uvm-1.2/seq/uvm_seq.svh'.
Parsing included file '/app/synopsys/installers/vcs/W-2024.09//etc/uvm-1.2/seq/uvm_sequencer_base.svh'.
Back to file '/app/synopsys/installers/vcs/W-2024.09//etc/uvm-1.2/seq/uvm_seq.svh'.
Parsing included file '/app/synopsys/installers/vcs/W-2024.09//etc/uvm-1.2/seq/uvm_sequencer_analysis_fifo.svh'.
Back to file '/app/synopsys/installers/vcs/W-2024.09//etc/uvm-1.2/seq/uvm_seq.svh'.
Parsing included file '/app/synopsys/installers/vcs/W-2024.09//etc/uvm-1.2/seq/uvm_sequencer_param_base.svh'.
Back to file '/app/synopsys/installers/vcs/W-2024.09//etc/uvm-1.2/seq/uvm_seq.svh'.
Parsing included file '/app/synopsys/installers/vcs/W-2024.09//etc/uvm-1.2/seq/uvm_sequencer.svh'.
Back to file '/app/synopsys/installers/vcs/W-2024.09//etc/uvm-1.2/seq/uvm_seq.svh'.
Parsing included file '/app/synopsys/installers/vcs/W-2024.09//etc/uvm-1.2/seq/uvm_push_sequencer.svh'.
Back to file '/app/synopsys/installers/vcs/W-2024.09//etc/uvm-1.2/seq/uvm_seq.svh'.
Parsing included file '/app/synopsys/installers/vcs/W-2024.09//etc/uvm-1.2/seq/uvm_sequence_base.svh'.
Back to file '/app/synopsys/installers/vcs/W-2024.09//etc/uvm-1.2/seq/uvm_seq.svh'.
Parsing included file '/app/synopsys/installers/vcs/W-2024.09//etc/uvm-1.2/seq/uvm_sequence.svh'.
Back to file '/app/synopsys/installers/vcs/W-2024.09//etc/uvm-1.2/seq/uvm_seq.svh'.
Parsing included file '/app/synopsys/installers/vcs/W-2024.09//etc/uvm-1.2/seq/uvm_sequence_library.svh'.
Back to file '/app/synopsys/installers/vcs/W-2024.09//etc/uvm-1.2/seq/uvm_seq.svh'.
Parsing included file '/app/synopsys/installers/vcs/W-2024.09//etc/uvm-1.2/seq/uvm_sequence_builtin.svh'.
Back to file '/app/synopsys/installers/vcs/W-2024.09//etc/uvm-1.2/seq/uvm_seq.svh'.
Back to file '/app/synopsys/installers/vcs/W-2024.09//etc/uvm-1.2/uvm_pkg.sv'.
Parsing included file '/app/synopsys/installers/vcs/W-2024.09//etc/uvm-1.2/tlm2/uvm_tlm2.svh'.
Parsing included file '/app/synopsys/installers/vcs/W-2024.09//etc/uvm-1.2/tlm2/uvm_tlm2_defines.svh'.
Back to file '/app/synopsys/installers/vcs/W-2024.09//etc/uvm-1.2/tlm2/uvm_tlm2.svh'.
Parsing included file '/app/synopsys/installers/vcs/W-2024.09//etc/uvm-1.2/tlm2/uvm_tlm2_time.svh'.
Back to file '/app/synopsys/installers/vcs/W-2024.09//etc/uvm-1.2/tlm2/uvm_tlm2.svh'.
Parsing included file '/app/synopsys/installers/vcs/W-2024.09//etc/uvm-1.2/tlm2/uvm_tlm2_generic_payload.svh'.
Back to file '/app/synopsys/installers/vcs/W-2024.09//etc/uvm-1.2/tlm2/uvm_tlm2.svh'.
Parsing included file '/app/synopsys/installers/vcs/W-2024.09//etc/uvm-1.2/tlm2/uvm_tlm2_ifs.svh'.
Back to file '/app/synopsys/installers/vcs/W-2024.09//etc/uvm-1.2/tlm2/uvm_tlm2.svh'.
Parsing included file '/app/synopsys/installers/vcs/W-2024.09//etc/uvm-1.2/tlm2/uvm_tlm2_imps.svh'.
Back to file '/app/synopsys/installers/vcs/W-2024.09//etc/uvm-1.2/tlm2/uvm_tlm2.svh'.
Parsing included file '/app/synopsys/installers/vcs/W-2024.09//etc/uvm-1.2/tlm2/uvm_tlm2_ports.svh'.
Back to file '/app/synopsys/installers/vcs/W-2024.09//etc/uvm-1.2/tlm2/uvm_tlm2.svh'.
Parsing included file '/app/synopsys/installers/vcs/W-2024.09//etc/uvm-1.2/tlm2/uvm_tlm2_exports.svh'.
Back to file '/app/synopsys/installers/vcs/W-2024.09//etc/uvm-1.2/tlm2/uvm_tlm2.svh'.
Parsing included file '/app/synopsys/installers/vcs/W-2024.09//etc/uvm-1.2/tlm2/uvm_tlm2_sockets_base.svh'.
Back to file '/app/synopsys/installers/vcs/W-2024.09//etc/uvm-1.2/tlm2/uvm_tlm2.svh'.
Parsing included file '/app/synopsys/installers/vcs/W-2024.09//etc/uvm-1.2/tlm2/uvm_tlm2_sockets.svh'.
Back to file '/app/synopsys/installers/vcs/W-2024.09//etc/uvm-1.2/tlm2/uvm_tlm2.svh'.
Back to file '/app/synopsys/installers/vcs/W-2024.09//etc/uvm-1.2/uvm_pkg.sv'.
Parsing included file '/app/synopsys/installers/vcs/W-2024.09//etc/uvm-1.2/reg/uvm_reg_model.svh'.
Parsing included file '/app/synopsys/installers/vcs/W-2024.09//etc/uvm-1.2/reg/uvm_reg_item.svh'.
Back to file '/app/synopsys/installers/vcs/W-2024.09//etc/uvm-1.2/reg/uvm_reg_model.svh'.
Parsing included file '/app/synopsys/installers/vcs/W-2024.09//etc/uvm-1.2/reg/uvm_reg_adapter.svh'.
Back to file '/app/synopsys/installers/vcs/W-2024.09//etc/uvm-1.2/reg/uvm_reg_model.svh'.
Parsing included file '/app/synopsys/installers/vcs/W-2024.09//etc/uvm-1.2/reg/uvm_reg_predictor.svh'.
Back to file '/app/synopsys/installers/vcs/W-2024.09//etc/uvm-1.2/reg/uvm_reg_model.svh'.
Parsing included file '/app/synopsys/installers/vcs/W-2024.09//etc/uvm-1.2/reg/uvm_reg_sequence.svh'.
Back to file '/app/synopsys/installers/vcs/W-2024.09//etc/uvm-1.2/reg/uvm_reg_model.svh'.
Parsing included file '/app/synopsys/installers/vcs/W-2024.09//etc/uvm-1.2/reg/uvm_reg_cbs.svh'.
Back to file '/app/synopsys/installers/vcs/W-2024.09//etc/uvm-1.2/reg/uvm_reg_model.svh'.
Parsing included file '/app/synopsys/installers/vcs/W-2024.09//etc/uvm-1.2/reg/uvm_reg_backdoor.svh'.
Back to file '/app/synopsys/installers/vcs/W-2024.09//etc/uvm-1.2/reg/uvm_reg_model.svh'.
Parsing included file '/app/synopsys/installers/vcs/W-2024.09//etc/uvm-1.2/reg/uvm_reg_field.svh'.
Back to file '/app/synopsys/installers/vcs/W-2024.09//etc/uvm-1.2/reg/uvm_reg_model.svh'.
Parsing included file '/app/synopsys/installers/vcs/W-2024.09//etc/uvm-1.2/reg/uvm_vreg_field.svh'.
Back to file '/app/synopsys/installers/vcs/W-2024.09//etc/uvm-1.2/reg/uvm_reg_model.svh'.
Parsing included file '/app/synopsys/installers/vcs/W-2024.09//etc/uvm-1.2/reg/uvm_reg.svh'.
Back to file '/app/synopsys/installers/vcs/W-2024.09//etc/uvm-1.2/reg/uvm_reg_model.svh'.
Parsing included file '/app/synopsys/installers/vcs/W-2024.09//etc/uvm-1.2/reg/uvm_reg_indirect.svh'.
Back to file '/app/synopsys/installers/vcs/W-2024.09//etc/uvm-1.2/reg/uvm_reg_model.svh'.
Parsing included file '/app/synopsys/installers/vcs/W-2024.09//etc/uvm-1.2/reg/uvm_reg_fifo.svh'.
Back to file '/app/synopsys/installers/vcs/W-2024.09//etc/uvm-1.2/reg/uvm_reg_model.svh'.
Parsing included file '/app/synopsys/installers/vcs/W-2024.09//etc/uvm-1.2/reg/uvm_reg_file.svh'.
Back to file '/app/synopsys/installers/vcs/W-2024.09//etc/uvm-1.2/reg/uvm_reg_model.svh'.
Parsing included file '/app/synopsys/installers/vcs/W-2024.09//etc/uvm-1.2/reg/uvm_mem_mam.svh'.
Back to file '/app/synopsys/installers/vcs/W-2024.09//etc/uvm-1.2/reg/uvm_reg_model.svh'.
Parsing included file '/app/synopsys/installers/vcs/W-2024.09//etc/uvm-1.2/reg/uvm_vreg.svh'.
Back to file '/app/synopsys/installers/vcs/W-2024.09//etc/uvm-1.2/reg/uvm_reg_model.svh'.
Parsing included file '/app/synopsys/installers/vcs/W-2024.09//etc/uvm-1.2/reg/uvm_mem.svh'.
Back to file '/app/synopsys/installers/vcs/W-2024.09//etc/uvm-1.2/reg/uvm_reg_model.svh'.
Parsing included file '/app/synopsys/installers/vcs/W-2024.09//etc/uvm-1.2/reg/uvm_reg_map.svh'.
Back to file '/app/synopsys/installers/vcs/W-2024.09//etc/uvm-1.2/reg/uvm_reg_model.svh'.
Parsing included file '/app/synopsys/installers/vcs/W-2024.09//etc/uvm-1.2/reg/uvm_reg_block.svh'.
Back to file '/app/synopsys/installers/vcs/W-2024.09//etc/uvm-1.2/reg/uvm_reg_model.svh'.
Parsing included file '/app/synopsys/installers/vcs/W-2024.09//etc/uvm-1.2/reg/sequences/uvm_reg_hw_reset_seq.svh'.
Back to file '/app/synopsys/installers/vcs/W-2024.09//etc/uvm-1.2/reg/uvm_reg_model.svh'.
Parsing included file '/app/synopsys/installers/vcs/W-2024.09//etc/uvm-1.2/reg/sequences/uvm_reg_bit_bash_seq.svh'.
Back to file '/app/synopsys/installers/vcs/W-2024.09//etc/uvm-1.2/reg/uvm_reg_model.svh'.
Parsing included file '/app/synopsys/installers/vcs/W-2024.09//etc/uvm-1.2/reg/sequences/uvm_mem_walk_seq.svh'.
Back to file '/app/synopsys/installers/vcs/W-2024.09//etc/uvm-1.2/reg/uvm_reg_model.svh'.
Parsing included file '/app/synopsys/installers/vcs/W-2024.09//etc/uvm-1.2/reg/sequences/uvm_mem_access_seq.svh'.
Back to file '/app/synopsys/installers/vcs/W-2024.09//etc/uvm-1.2/reg/uvm_reg_model.svh'.
Parsing included file '/app/synopsys/installers/vcs/W-2024.09//etc/uvm-1.2/reg/sequences/uvm_reg_access_seq.svh'.
Back to file '/app/synopsys/installers/vcs/W-2024.09//etc/uvm-1.2/reg/uvm_reg_model.svh'.
Parsing included file '/app/synopsys/installers/vcs/W-2024.09//etc/uvm-1.2/reg/sequences/uvm_reg_mem_shared_access_seq.svh'.
Back to file '/app/synopsys/installers/vcs/W-2024.09//etc/uvm-1.2/reg/uvm_reg_model.svh'.
Parsing included file '/app/synopsys/installers/vcs/W-2024.09//etc/uvm-1.2/reg/sequences/uvm_reg_mem_built_in_seq.svh'.
Back to file '/app/synopsys/installers/vcs/W-2024.09//etc/uvm-1.2/reg/uvm_reg_model.svh'.
Parsing included file '/app/synopsys/installers/vcs/W-2024.09//etc/uvm-1.2/reg/sequences/uvm_reg_mem_hdl_paths_seq.svh'.
Back to file '/app/synopsys/installers/vcs/W-2024.09//etc/uvm-1.2/reg/uvm_reg_model.svh'.
Parsing included file '/app/synopsys/installers/vcs/W-2024.09//etc/uvm-1.2/reg/snps_uvm_reg_bank.svh'.
Back to file '/app/synopsys/installers/vcs/W-2024.09//etc/uvm-1.2/reg/uvm_reg_model.svh'.
Back to file '/app/synopsys/installers/vcs/W-2024.09//etc/uvm-1.2/uvm_pkg.sv'.
Parsing included file '/app/synopsys/installers/vcs/W-2024.09//etc/uvm-1.2/vcs/vcs_uvm_alt.sv'.
Back to file '/app/synopsys/installers/vcs/W-2024.09//etc/uvm-1.2/uvm_pkg.sv'.
Parsing design file '/app/synopsys/installers/vcs/W-2024.09//etc/uvm-1.2/vcs/uvm_custom_install_vcs_recorder.sv'
Parsing included file '/app/synopsys/installers/vcs/W-2024.09//etc/uvm-1.2/vcs/msglog.svh'.
Back to file '/app/synopsys/installers/vcs/W-2024.09//etc/uvm-1.2/vcs/uvm_custom_install_vcs_recorder.sv'.
Parsing included file '/app/synopsys/installers/vcs/W-2024.09//etc/uvm-1.2/vcs/uvm_msglog_report_server.sv'.
Back to file '/app/synopsys/installers/vcs/W-2024.09//etc/uvm-1.2/vcs/uvm_custom_install_vcs_recorder.sv'.
Parsing included file '/app/synopsys/installers/vcs/W-2024.09//etc/uvm-1.2/vcs/uvm_vcs_recorder.svh'.
Parsing included file '/app/synopsys/installers/vcs/W-2024.09//etc/uvm-1.2/vcs/uvm_vcs_tr_database.svh'.
Parsing included file '/app/synopsys/installers/vcs/W-2024.09//etc/uvm-1.2/vcs/uvm_vcs_tr_stream.svh'.
Back to file '/app/synopsys/installers/vcs/W-2024.09//etc/uvm-1.2/vcs/uvm_vcs_tr_database.svh'.
Back to file '/app/synopsys/installers/vcs/W-2024.09//etc/uvm-1.2/vcs/uvm_vcs_recorder.svh'.
Back to file '/app/synopsys/installers/vcs/W-2024.09//etc/uvm-1.2/vcs/uvm_custom_install_vcs_recorder.sv'.
Parsing included file '/app/synopsys/installers/vcs/W-2024.09//etc/uvm-1.2/vcs/uvm_vcs_record_interface.sv'.
Back to file '/app/synopsys/installers/vcs/W-2024.09//etc/uvm-1.2/vcs/uvm_custom_install_vcs_recorder.sv'.
Parsing design file '/app/synopsys/installers/vcs/W-2024.09//etc/uvm-1.2/verdi/uvm_custom_install_verdi_recorder.sv'
Parsing included file '/app/synopsys/installers/vcs/W-2024.09//etc/uvm-1.2/uvm_macros.svh'.
Back to file '/app/synopsys/installers/vcs/W-2024.09//etc/uvm-1.2/verdi/uvm_custom_install_verdi_recorder.sv'.
Parsing included file '/app/synopsys/installers/vcs/W-2024.09//etc/uvm-1.2/verdi/uvm_verdi_recorder.svh'.
Parsing included file '/app/synopsys/installers/vcs/W-2024.09//etc/uvm-1.2/verdi/uvm_verdi_pli_base.svh'.
Back to file '/app/synopsys/installers/vcs/W-2024.09//etc/uvm-1.2/verdi/uvm_verdi_recorder.svh'.
Parsing included file '/app/synopsys/installers/vcs/W-2024.09//etc/uvm-1.2/verdi/uvm_verdi_tr_database.svh'.
Parsing included file '/app/synopsys/installers/vcs/W-2024.09//etc/uvm-1.2/verdi/uvm_verdi_tr_stream.svh'.
Back to file '/app/synopsys/installers/vcs/W-2024.09//etc/uvm-1.2/verdi/uvm_verdi_tr_database.svh'.
Back to file '/app/synopsys/installers/vcs/W-2024.09//etc/uvm-1.2/verdi/uvm_verdi_recorder.svh'.
Back to file '/app/synopsys/installers/vcs/W-2024.09//etc/uvm-1.2/verdi/uvm_custom_install_verdi_recorder.sv'.
Parsing included file '/app/synopsys/installers/vcs/W-2024.09//etc/uvm-1.2/verdi/uvm_verdi_reg_map_recording.sv'.
Back to file '/app/synopsys/installers/vcs/W-2024.09//etc/uvm-1.2/verdi/uvm_custom_install_verdi_recorder.sv'.
Parsing included file '/app/synopsys/installers/vcs/W-2024.09//etc/uvm-1.2/verdi/uvm_verdi_message_catcher.svh'.
Parsing included file '/app/synopsys/installers/vcs/W-2024.09//etc/uvm-1.2/verdi/uvm_verdi_pli_base.svh'.
Back to file '/app/synopsys/installers/vcs/W-2024.09//etc/uvm-1.2/verdi/uvm_verdi_message_catcher.svh'.
Back to file '/app/synopsys/installers/vcs/W-2024.09//etc/uvm-1.2/verdi/uvm_custom_install_verdi_recorder.sv'.
Parsing included file '/app/synopsys/installers/vcs/W-2024.09//etc/uvm-1.2/verdi/uvm_verdi_factory.svh'.
Back to file '/app/synopsys/installers/vcs/W-2024.09//etc/uvm-1.2/verdi/uvm_custom_install_verdi_recorder.sv'.
Parsing included file '/app/synopsys/installers/vcs/W-2024.09//etc/uvm-1.2/verdi/./dpi/uvm_verdi_dpi.svh'.
Back to file '/app/synopsys/installers/vcs/W-2024.09//etc/uvm-1.2/verdi/uvm_custom_install_verdi_recorder.sv'.
Parsing included file '/app/synopsys/installers/vcs/W-2024.09//etc/uvm-1.2/verdi/uvm_verdi_reg_recording.sv'.
Back to file '/app/synopsys/installers/vcs/W-2024.09//etc/uvm-1.2/verdi/uvm_custom_install_verdi_recorder.sv'.
Parsing included file '/app/synopsys/installers/verdi/X-2025.06/share/PLI/VCS/include/verdi_trans_recorder_dpi.svh'.
Back to file '/app/synopsys/installers/vcs/W-2024.09//etc/uvm-1.2/verdi/uvm_custom_install_verdi_recorder.sv'.
Parsing included file '/app/synopsys/installers/vcs/W-2024.09//etc/uvm-1.2/verdi/uvm_verdi_pli.svh'.
Back to file '/app/synopsys/installers/vcs/W-2024.09//etc/uvm-1.2/verdi/uvm_custom_install_verdi_recorder.sv'.
Parsing design file '/app/synopsys/installers/vcs/W-2024.09//etc/uvm-1.2/verdi/uvm_custom_install_verdi_recorder.sv'
Parsing design file '/home/dvft1103/dvft11/uvm/apb_project/verification/tb/apb_interface.sv'
Parsing design file '/home/dvft1103/dvft11/uvm/apb_project/verification/agent/apb_agent_package.svp'
Parsing included file '/app/synopsys/installers/vcs/W-2024.09//etc/uvm-1.2/uvm_macros.svh'.
Back to file '/home/dvft1103/dvft11/uvm/apb_project/verification/agent/apb_agent_package.svp'.
Parsing included file '/home/dvft1103/dvft11/uvm/apb_project/verification/agent/apb_sequence_item.sv'.
Back to file '/home/dvft1103/dvft11/uvm/apb_project/verification/agent/apb_agent_package.svp'.
Parsing included file '/home/dvft1103/dvft11/uvm/apb_project/verification/agent/apb_sequencer.sv'.
Back to file '/home/dvft1103/dvft11/uvm/apb_project/verification/agent/apb_agent_package.svp'.
Parsing included file '/home/dvft1103/dvft11/uvm/apb_project/verification/agent/apb_driver.sv'.
Back to file '/home/dvft1103/dvft11/uvm/apb_project/verification/agent/apb_agent_package.svp'.
Parsing included file '/home/dvft1103/dvft11/uvm/apb_project/verification/agent/apb_active_monitor.sv'.
Back to file '/home/dvft1103/dvft11/uvm/apb_project/verification/agent/apb_agent_package.svp'.
Parsing included file '/home/dvft1103/dvft11/uvm/apb_project/verification/agent/apb_active_agent.sv'.
Back to file '/home/dvft1103/dvft11/uvm/apb_project/verification/agent/apb_agent_package.svp'.
Parsing included file '/home/dvft1103/dvft11/uvm/apb_project/verification/agent/apb_passive_monitor.sv'.
Back to file '/home/dvft1103/dvft11/uvm/apb_project/verification/agent/apb_agent_package.svp'.
Parsing included file '/home/dvft1103/dvft11/uvm/apb_project/verification/agent/apb_passive_agent.sv'.
Back to file '/home/dvft1103/dvft11/uvm/apb_project/verification/agent/apb_agent_package.svp'.
Parsing design file '/home/dvft1103/dvft11/uvm/apb_project/verification/env/apb_env_package.svp'
Parsing included file '/app/synopsys/installers/vcs/W-2024.09//etc/uvm-1.2/uvm_macros.svh'.
Back to file '/home/dvft1103/dvft11/uvm/apb_project/verification/env/apb_env_package.svp'.
Parsing included file '/home/dvft1103/dvft11/uvm/apb_project/verification/env/apb_score_board.sv'.
Back to file '/home/dvft1103/dvft11/uvm/apb_project/verification/env/apb_env_package.svp'.
Parsing included file '/home/dvft1103/dvft11/uvm/apb_project/verification/env/apb_coverage.sv'.
Back to file '/home/dvft1103/dvft11/uvm/apb_project/verification/env/apb_env_package.svp'.
Parsing included file '/home/dvft1103/dvft11/uvm/apb_project/verification/env/apb_env.sv'.
Back to file '/home/dvft1103/dvft11/uvm/apb_project/verification/env/apb_env_package.svp'.
Parsing design file '/home/dvft1103/dvft11/uvm/apb_project/verification/test/apb_test_package.svp'
Parsing included file '/app/synopsys/installers/vcs/W-2024.09//etc/uvm-1.2/uvm_macros.svh'.
Back to file '/home/dvft1103/dvft11/uvm/apb_project/verification/test/apb_test_package.svp'.
Parsing included file '/home/dvft1103/dvft11/uvm/apb_project/verification/test/apb_error_seq.sv'.
Back to file '/home/dvft1103/dvft11/uvm/apb_project/verification/test/apb_test_package.svp'.
Parsing included file '/home/dvft1103/dvft11/uvm/apb_project/verification/test/apb_read_seq.sv'.
Back to file '/home/dvft1103/dvft11/uvm/apb_project/verification/test/apb_test_package.svp'.
Parsing included file '/home/dvft1103/dvft11/uvm/apb_project/verification/test/apb_write_seq.sv'.
Back to file '/home/dvft1103/dvft11/uvm/apb_project/verification/test/apb_test_package.svp'.
Parsing included file '/home/dvft1103/dvft11/uvm/apb_project/verification/test/apb_rw_seq.sv'.
Back to file '/home/dvft1103/dvft11/uvm/apb_project/verification/test/apb_test_package.svp'.
Parsing included file '/home/dvft1103/dvft11/uvm/apb_project/verification/test/apb_con_psel_seq.sv'.
Back to file '/home/dvft1103/dvft11/uvm/apb_project/verification/test/apb_test_package.svp'.
Parsing included file '/home/dvft1103/dvft11/uvm/apb_project/verification/test/apb_test.sv'.
Back to file '/home/dvft1103/dvft11/uvm/apb_project/verification/test/apb_test_package.svp'.
Parsing design file '/home/dvft1103/dvft11/uvm/apb_project/design/apb_slave_design.sv'
Parsing design file '/home/dvft1103/dvft11/uvm/apb_project/verification/tb/apb_top.sv'
Parsing included file '/app/synopsys/installers/vcs/W-2024.09//etc/uvm-1.2/uvm_macros.svh'.
Back to file '/home/dvft1103/dvft11/uvm/apb_project/verification/tb/apb_top.sv'.
Top Level Modules:
       uvm_custom_install_recording
       uvm_custom_install_verdi_recording
       apb_top
No TimeScale specified
VCS Coverage Metrics Release W-2024.09_Full64 Copyright (c) 1991-2024 by Synopsys Inc.
Notice: Ports coerced to inout, use -notice for details
Starting vcs inline pass...
11 modules and 0 UDP read.
recompiling package vcs_paramclassrepository
recompiling package _vcs_DPI_package
recompiling package uvm_pkg
recompiling package _vcs_msglog
recompiling module uvm_custom_install_recording
recompiling module uvm_custom_install_verdi_recording
recompiling module apb_interface
recompiling package apb_agent_package
recompiling package apb_env_package
recompiling package apb_test_package
recompiling module apb_top
All of 11 modules done
make[1]: Entering directory '/home/dvft1103/dvft11/uvm/apb_project/run/csrc'
rm -f _cuarc*.so _csrc*.so pre_vcsobj_*.so share_vcsobj_*.so
g++ -w  -pipe -DVCSMX -DUVM_DPI_DO_TYPE_CHECK -fPIC -O -I/app/synopsys/installers/vcs/W-2024.09/include \
-c /app/synopsys/installers/vcs/W-2024.09//etc/uvm-1.2/dpi/uvm_dpi.cc
g++ -w  -pipe -DVCSMX -DUVM_DPI_DO_TYPE_CHECK -fPIC -O -I/app/synopsys/installers/vcs/W-2024.09/include \
-c /app/synopsys/installers/vcs/W-2024.09//etc/uvm-1.2/verdi/dpi/uvm_verdi_dpi.cpp \

if [ -x ../simv ]; then chmod a-x ../simv; fi
g++  -o ../simv      -rdynamic  -Wl,-rpath='$ORIGIN'/simv.daidir -Wl,-rpath=./simv.daidir \
-Wl,-rpath=/app/synopsys/installers/vcs/W-2024.09/linux64/lib -L/app/synopsys/installers/vcs/W-2024.09/linux64/lib \
-Wl,-rpath-link=./  /usr/lib64/libnuma.so.1 uvm_dpi.o uvm_verdi_dpi.o   objs/amcQw_d.o \
_908404_archive_1.so   SIM_l.o      rmapats_mop.o rmapats.o rmar.o rmar_nd.o  rmar_llvm_0_1.o \
rmar_llvm_0_0.o            -lvirsim -lerrorinf -lsnpsmalloc -lvfs    -lvcsnew -lsimprofile \
-lreader_common /app/synopsys/installers/vcs/W-2024.09/linux64/lib/libBA.a -luclinative \
/app/synopsys/installers/vcs/W-2024.09/linux64/lib/vcs_tls.o   -Wl,-whole-archive \
-lvcsucli    -Wl,-no-whole-archive       ./../simv.daidir/vc_hdrs.o  _vcs_pli_stub_.o \
/app/synopsys/installers/vcs/W-2024.09/linux64/lib/vcs_save_restore_new.o /app/synopsys/installers/verdi/X-2025.06/share/PLI/VCS/LINUX64/pli.a \
-ldl  -lc -lm -lpthread -ldl 
../simv up to date
make[1]: Leaving directory '/home/dvft1103/dvft11/uvm/apb_project/run/csrc'
Command: /home/dvft1103/dvft11/uvm/apb_project/run/./simv -a debug.log -cm_runsilent -cm line+tgl+cond+fsm+branch+assert
Chronologic VCS simulator copyright 1991-2024
Contains Synopsys proprietary information.
Compiler version W-2024.09_Full64; Runtime version W-2024.09_Full64;  May 21 23:14 2026
UVM_INFO /app/synopsys/installers/vcs/W-2024.09//etc/uvm-1.2/base/uvm_root.svh(402) @ 0: reporter [UVM/RELNOTES] 
----------------------------------------------------------------
UVM-1.2.Synopsys
(C) 2007-2014 Mentor Graphics Corporation
(C) 2007-2014 Cadence Design Systems, Inc.
(C) 2006-2014 Synopsys, Inc.
(C) 2011-2013 Cypress Semiconductor Corp.
(C) 2013-2014 NVIDIA Corporation
----------------------------------------------------------------

  ***********       IMPORTANT RELEASE NOTES         ************

  You are using a version of the UVM library that has been compiled
  with `UVM_NO_DEPRECATED undefined.
  See http://www.eda.org/svdb/view.php?id=3313 for more details.

  You are using a version of the UVM library that has been compiled
  with `UVM_OBJECT_DO_NOT_NEED_CONSTRUCTOR undefined.
  See http://www.eda.org/svdb/view.php?id=3770 for more details.

      (Specify +UVM_NO_RELNOTES to turn off this notice)

UVM_INFO /home/dvft1103/dvft11/uvm/apb_project/verification/tb/apb_top.sv(33) @ 0: reporter [APB_TOP] Before run test
UVM_INFO @ 0: reporter [RNTST] Running test apb_test...
"/home/dvft1103/dvft11/uvm/apb_project/verification/tb/apb_interface.sv", 60: apb_top.intf_h.preset_check: started at 5s failed at 5s
	Offending '((!psel) && (!penable))'
UVM_INFO /home/dvft1103/dvft11/uvm/apb_project/verification/agent/apb_driver.sv(38) @ 5: uvm_test_top.env_h.act_agent_h.drv_h [DRV] Entered to RESET LOGIC
UVM_INFO /home/dvft1103/dvft11/uvm/apb_project/verification/test/apb_error_seq.sv(35) @ 25: uvm_test_top.env_h.act_agent_h.seqr_h@@error_h [apb_error_seq] Dispalying From apb_error_seq=-----------------------------------------------------------------------------------------------------
Name                           Type               Size  Value                                        
-----------------------------------------------------------------------------------------------------
seq_h                          apb_sequence_item  -     @718                                         
  psel                         integral           1     'h0                                          
  continuous_psel              integral           1     'h0                                          
  penable                      integral           1     'h0                                          
  pready                       integral           1     'h0                                          
  paddr                        integral           32    'hffffffff                                   
  pwrite                       integral           1     'h0                                          
  prdata                       integral           32    'h0                                          
  pwdata                       integral           32    'h8b334277                                   
  pslverr                      integral           1     'h0                                          
  apb_state                    apb_state_e        2     ""                                           
  begin_time                   time               64    25                                           
  depth                        int                32    'd2                                          
  parent sequence (name)       string             7     error_h                                      
  parent sequence (full name)  string             45    uvm_test_top.env_h.act_agent_h.seqr_h.error_h
  sequencer                    string             37    uvm_test_top.env_h.act_agent_h.seqr_h        
-----------------------------------------------------------------------------------------------------

UVM_INFO /home/dvft1103/dvft11/uvm/apb_project/verification/agent/apb_driver.sv(52) @ 25: uvm_test_top.env_h.act_agent_h.drv_h [DRIVER] Displaying from apb_driver=-----------------------------------------------------------------------------------------------------
Name                           Type               Size  Value                                        
-----------------------------------------------------------------------------------------------------
seq_h                          apb_sequence_item  -     @718                                         
  psel                         integral           1     'h0                                          
  continuous_psel              integral           1     'h0                                          
  penable                      integral           1     'h0                                          
  pready                       integral           1     'h0                                          
  paddr                        integral           32    'hffffffff                                   
  pwrite                       integral           1     'h0                                          
  prdata                       integral           32    'h0                                          
  pwdata                       integral           32    'h8b334277                                   
  pslverr                      integral           1     'h0                                          
  apb_state                    apb_state_e        2     ""                                           
  begin_time                   time               64    25                                           
  depth                        int                32    'd2                                          
  parent sequence (name)       string             7     error_h                                      
  parent sequence (full name)  string             45    uvm_test_top.env_h.act_agent_h.seqr_h.error_h
  sequencer                    string             37    uvm_test_top.env_h.act_agent_h.seqr_h        
-----------------------------------------------------------------------------------------------------

UVM_INFO /home/dvft1103/dvft11/uvm/apb_project/verification/agent/apb_driver.sv(63) @ 25: uvm_test_top.env_h.act_agent_h.drv_h [[DRV]] Entered SETUP State
UVM_INFO /home/dvft1103/dvft11/uvm/apb_project/verification/env/apb_score_board.sv(51) @ 30: uvm_test_top.env_h.sb_h [[SB]] [ACTIVE] paddr=0x0 pwrite=0 pwdata=0x0 prdata=0x0 pslverr=0
UVM_INFO /home/dvft1103/dvft11/uvm/apb_project/verification/agent/apb_active_monitor.sv(57) @ 30: uvm_test_top.env_h.act_agent_h.act_mon_h [[ACTIVE_MON]] setup detected:::::- ------------------------------------------------------
Name               Type               Size  Value     
------------------------------------------------------
seq_h              apb_sequence_item  -     @759      
  psel             integral           1     'h1       
  continuous_psel  integral           1     'h0       
  penable          integral           1     'h0       
  pready           integral           1     'h1       
  paddr            integral           32    'hffffffff
  pwrite           integral           1     'h0       
  prdata           integral           32    'h0       
  pwdata           integral           32    'h8b334277
  pslverr          integral           1     'h0       
  apb_state        apb_state_e        2     IDLE      
------------------------------------------------------

UVM_INFO /home/dvft1103/dvft11/uvm/apb_project/verification/env/apb_score_board.sv(51) @ 30: uvm_test_top.env_h.sb_h [[SB]] [ACTIVE] paddr=0xffffffff pwrite=0 pwdata=0x8b334277 prdata=0x0 pslverr=0
UVM_INFO /home/dvft1103/dvft11/uvm/apb_project/verification/env/apb_score_board.sv(61) @ 30: uvm_test_top.env_h.sb_h [[SB]] [PASSIVE] paddr=0x0 pwrite=0 pwdata=0x0 prdata=0x0 pslverr=0
UVM_WARNING /home/dvft1103/dvft11/uvm/apb_project/verification/env/apb_score_board.sv(150) @ 30: uvm_test_top.env_h.sb_h [[SB]] [30] READ from uninitialised addr 0x0 --- no ref
UVM_INFO /home/dvft1103/dvft11/uvm/apb_project/verification/agent/apb_passive_monitor.sv(52) @ 30: uvm_test_top.env_h.pas_agent_h.pas_mon_h [[PASSIVE_MON]] setup detected:::::- ------------------------------------------------------
Name               Type               Size  Value     
------------------------------------------------------
seq_h              apb_sequence_item  -     @785      
  psel             integral           1     'h1       
  continuous_psel  integral           1     'h0       
  penable          integral           1     'h0       
  pready           integral           1     'h1       
  paddr            integral           32    'hffffffff
  pwrite           integral           1     'h0       
  prdata           integral           32    'h0       
  pwdata           integral           32    'h8b334277
  pslverr          integral           1     'h0       
  apb_state        apb_state_e        2     IDLE      
------------------------------------------------------

UVM_INFO /home/dvft1103/dvft11/uvm/apb_project/verification/env/apb_score_board.sv(61) @ 30: uvm_test_top.env_h.sb_h [[SB]] [PASSIVE] paddr=0xffffffff pwrite=0 pwdata=0x8b334277 prdata=0x0 pslverr=0
UVM_WARNING /home/dvft1103/dvft11/uvm/apb_project/verification/env/apb_score_board.sv(150) @ 30: uvm_test_top.env_h.sb_h [[SB]] [30] READ from uninitialised addr 0xffffffff --- no ref
UVM_INFO /home/dvft1103/dvft11/uvm/apb_project/verification/agent/apb_driver.sv(81) @ 35: uvm_test_top.env_h.act_agent_h.drv_h [[DRV]] Entered ACCESS State
UVM_INFO /home/dvft1103/dvft11/uvm/apb_project/verification/env/apb_score_board.sv(51) @ 40: uvm_test_top.env_h.sb_h [[SB]] [ACTIVE] paddr=0xffffffff pwrite=0 pwdata=0x8b334277 prdata=0x0 pslverr=0
UVM_INFO /home/dvft1103/dvft11/uvm/apb_project/verification/env/apb_score_board.sv(51) @ 40: uvm_test_top.env_h.sb_h [[SB]] [ACTIVE] paddr=0xffffffff pwrite=0 pwdata=0x8b334277 prdata=0x0 pslverr=1
UVM_INFO /home/dvft1103/dvft11/uvm/apb_project/verification/agent/apb_active_monitor.sv(85) @ 40: uvm_test_top.env_h.act_agent_h.act_mon_h [[ACTIVE_MON]]  Transaction sent to scoreboard
UVM_INFO /home/dvft1103/dvft11/uvm/apb_project/verification/env/apb_score_board.sv(61) @ 40: uvm_test_top.env_h.sb_h [[SB]] [PASSIVE] paddr=0xffffffff pwrite=0 pwdata=0x8b334277 prdata=0x0 pslverr=0
UVM_WARNING /home/dvft1103/dvft11/uvm/apb_project/verification/env/apb_score_board.sv(150) @ 40: uvm_test_top.env_h.sb_h [[SB]] [40] READ from uninitialised addr 0xffffffff --- no ref
UVM_INFO /home/dvft1103/dvft11/uvm/apb_project/verification/env/apb_score_board.sv(61) @ 40: uvm_test_top.env_h.sb_h [[SB]] [PASSIVE] paddr=0xffffffff pwrite=0 pwdata=0x8b334277 prdata=0x0 pslverr=1
UVM_ERROR /home/dvft1103/dvft11/uvm/apb_project/verification/env/apb_score_board.sv(84) @ 40: uvm_test_top.env_h.sb_h [[SB]] [40] SLAVE ERROR:paddr=0xffffffff pwrite =0x0 act_pslverr=1 pas_pslverr=1
UVM_INFO /home/dvft1103/dvft11/uvm/apb_project/verification/agent/apb_passive_monitor.sv(79) @ 40: uvm_test_top.env_h.pas_agent_h.pas_mon_h [[PASSIVE_MON]]  Transaction sent to scoreboard
UVM_INFO /home/dvft1103/dvft11/uvm/apb_project/verification/agent/apb_driver.sv(107) @ 45: uvm_test_top.env_h.act_agent_h.drv_h [[DRV]] Pready occured at wait_count=0 4294967295 2335392375
UVM_INFO /home/dvft1103/dvft11/uvm/apb_project/verification/agent/apb_driver.sv(110) @ 55: uvm_test_top.env_h.act_agent_h.drv_h [[DRV]] Transaction completed
UVM_INFO /home/dvft1103/dvft11/uvm/apb_project/verification/test/apb_error_seq.sv(35) @ 65: uvm_test_top.env_h.act_agent_h.seqr_h@@error_h [apb_error_seq] Dispalying From apb_error_seq=-----------------------------------------------------------------------------------------------------
Name                           Type               Size  Value                                        
-----------------------------------------------------------------------------------------------------
seq_h                          apb_sequence_item  -     @870                                         
  psel                         integral           1     'h0                                          
  continuous_psel              integral           1     'h0                                          
  penable                      integral           1     'h0                                          
  pready                       integral           1     'h0                                          
  paddr                        integral           32    'hffffffff                                   
  pwrite                       integral           1     'h0                                          
  prdata                       integral           32    'h0                                          
  pwdata                       integral           32    'h53c1183                                    
  pslverr                      integral           1     'h0                                          
  apb_state                    apb_state_e        2     ""                                           
  begin_time                   time               64    65                                           
  depth                        int                32    'd2                                          
  parent sequence (name)       string             7     error_h                                      
  parent sequence (full name)  string             45    uvm_test_top.env_h.act_agent_h.seqr_h.error_h
  sequencer                    string             37    uvm_test_top.env_h.act_agent_h.seqr_h        
-----------------------------------------------------------------------------------------------------

UVM_INFO /home/dvft1103/dvft11/uvm/apb_project/verification/agent/apb_driver.sv(52) @ 65: uvm_test_top.env_h.act_agent_h.drv_h [DRIVER] Displaying from apb_driver=-----------------------------------------------------------------------------------------------------
Name                           Type               Size  Value                                        
-----------------------------------------------------------------------------------------------------
seq_h                          apb_sequence_item  -     @870                                         
  psel                         integral           1     'h0                                          
  continuous_psel              integral           1     'h0                                          
  penable                      integral           1     'h0                                          
  pready                       integral           1     'h0                                          
  paddr                        integral           32    'hffffffff                                   
  pwrite                       integral           1     'h0                                          
  prdata                       integral           32    'h0                                          
  pwdata                       integral           32    'h53c1183                                    
  pslverr                      integral           1     'h0                                          
  apb_state                    apb_state_e        2     ""                                           
  begin_time                   time               64    65                                           
  depth                        int                32    'd2                                          
  parent sequence (name)       string             7     error_h                                      
  parent sequence (full name)  string             45    uvm_test_top.env_h.act_agent_h.seqr_h.error_h
  sequencer                    string             37    uvm_test_top.env_h.act_agent_h.seqr_h        
-----------------------------------------------------------------------------------------------------

UVM_INFO /home/dvft1103/dvft11/uvm/apb_project/verification/agent/apb_driver.sv(63) @ 65: uvm_test_top.env_h.act_agent_h.drv_h [[DRV]] Entered SETUP State
UVM_INFO /home/dvft1103/dvft11/uvm/apb_project/verification/env/apb_score_board.sv(51) @ 70: uvm_test_top.env_h.sb_h [[SB]] [ACTIVE] paddr=0x0 pwrite=0 pwdata=0x0 prdata=0x0 pslverr=0
UVM_INFO /home/dvft1103/dvft11/uvm/apb_project/verification/agent/apb_active_monitor.sv(57) @ 70: uvm_test_top.env_h.act_agent_h.act_mon_h [[ACTIVE_MON]] setup detected:::::- ------------------------------------------------------
Name               Type               Size  Value     
------------------------------------------------------
seq_h              apb_sequence_item  -     @884      
  psel             integral           1     'h1       
  continuous_psel  integral           1     'h0       
  penable          integral           1     'h0       
  pready           integral           1     'h0       
  paddr            integral           32    'hffffffff
  pwrite           integral           1     'h0       
  prdata           integral           32    'h0       
  pwdata           integral           32    'h53c1183 
  pslverr          integral           1     'h0       
  apb_state        apb_state_e        2     IDLE      
------------------------------------------------------

UVM_INFO /home/dvft1103/dvft11/uvm/apb_project/verification/env/apb_score_board.sv(51) @ 70: uvm_test_top.env_h.sb_h [[SB]] [ACTIVE] paddr=0xffffffff pwrite=0 pwdata=0x53c1183 prdata=0x0 pslverr=0
UVM_INFO /home/dvft1103/dvft11/uvm/apb_project/verification/env/apb_score_board.sv(61) @ 70: uvm_test_top.env_h.sb_h [[SB]] [PASSIVE] paddr=0x0 pwrite=0 pwdata=0x0 prdata=0x0 pslverr=0
UVM_WARNING /home/dvft1103/dvft11/uvm/apb_project/verification/env/apb_score_board.sv(150) @ 70: uvm_test_top.env_h.sb_h [[SB]] [70] READ from uninitialised addr 0x0 --- no ref
UVM_INFO /home/dvft1103/dvft11/uvm/apb_project/verification/agent/apb_passive_monitor.sv(52) @ 70: uvm_test_top.env_h.pas_agent_h.pas_mon_h [[PASSIVE_MON]] setup detected:::::- ------------------------------------------------------
Name               Type               Size  Value     
------------------------------------------------------
seq_h              apb_sequence_item  -     @910      
  psel             integral           1     'h1       
  continuous_psel  integral           1     'h0       
  penable          integral           1     'h0       
  pready           integral           1     'h0       
  paddr            integral           32    'hffffffff
  pwrite           integral           1     'h0       
  prdata           integral           32    'h0       
  pwdata           integral           32    'h53c1183 
  pslverr          integral           1     'h0       
  apb_state        apb_state_e        2     IDLE      
------------------------------------------------------

UVM_INFO /home/dvft1103/dvft11/uvm/apb_project/verification/env/apb_score_board.sv(61) @ 70: uvm_test_top.env_h.sb_h [[SB]] [PASSIVE] paddr=0xffffffff pwrite=0 pwdata=0x53c1183 prdata=0x0 pslverr=0
UVM_WARNING /home/dvft1103/dvft11/uvm/apb_project/verification/env/apb_score_board.sv(150) @ 70: uvm_test_top.env_h.sb_h [[SB]] [70] READ from uninitialised addr 0xffffffff --- no ref
UVM_INFO /home/dvft1103/dvft11/uvm/apb_project/verification/agent/apb_driver.sv(81) @ 75: uvm_test_top.env_h.act_agent_h.drv_h [[DRV]] Entered ACCESS State
UVM_INFO /home/dvft1103/dvft11/uvm/apb_project/verification/env/apb_score_board.sv(51) @ 80: uvm_test_top.env_h.sb_h [[SB]] [ACTIVE] paddr=0xffffffff pwrite=0 pwdata=0x53c1183 prdata=0x0 pslverr=0
UVM_INFO /home/dvft1103/dvft11/uvm/apb_project/verification/env/apb_score_board.sv(61) @ 80: uvm_test_top.env_h.sb_h [[SB]] [PASSIVE] paddr=0xffffffff pwrite=0 pwdata=0x53c1183 prdata=0x0 pslverr=0
UVM_WARNING /home/dvft1103/dvft11/uvm/apb_project/verification/env/apb_score_board.sv(150) @ 80: uvm_test_top.env_h.sb_h [[SB]] [80] READ from uninitialised addr 0xffffffff --- no ref
"/home/dvft1103/dvft11/uvm/apb_project/verification/tb/apb_interface.sv", 102: apb_top.intf_h.pready_waiting: started at 35s failed at 95s
	Offending 'pready'
UVM_INFO /home/dvft1103/dvft11/uvm/apb_project/verification/agent/apb_driver.sv(107) @ 95: uvm_test_top.env_h.act_agent_h.drv_h [[DRV]] Pready occured at wait_count=1 4294967295 87822723
UVM_INFO /home/dvft1103/dvft11/uvm/apb_project/verification/env/apb_score_board.sv(51) @ 100: uvm_test_top.env_h.sb_h [[SB]] [ACTIVE] paddr=0xffffffff pwrite=0 pwdata=0x53c1183 prdata=0x0 pslverr=1
UVM_INFO /home/dvft1103/dvft11/uvm/apb_project/verification/agent/apb_active_monitor.sv(85) @ 100: uvm_test_top.env_h.act_agent_h.act_mon_h [[ACTIVE_MON]]  Transaction sent to scoreboard
UVM_INFO /home/dvft1103/dvft11/uvm/apb_project/verification/env/apb_score_board.sv(61) @ 100: uvm_test_top.env_h.sb_h [[SB]] [PASSIVE] paddr=0xffffffff pwrite=0 pwdata=0x53c1183 prdata=0x0 pslverr=1
UVM_ERROR /home/dvft1103/dvft11/uvm/apb_project/verification/env/apb_score_board.sv(84) @ 100: uvm_test_top.env_h.sb_h [[SB]] [100] SLAVE ERROR:paddr=0xffffffff pwrite =0x0 act_pslverr=1 pas_pslverr=1
UVM_INFO /home/dvft1103/dvft11/uvm/apb_project/verification/agent/apb_passive_monitor.sv(79) @ 100: uvm_test_top.env_h.pas_agent_h.pas_mon_h [[PASSIVE_MON]]  Transaction sent to scoreboard
UVM_INFO /home/dvft1103/dvft11/uvm/apb_project/verification/agent/apb_driver.sv(110) @ 105: uvm_test_top.env_h.act_agent_h.drv_h [[DRV]] Transaction completed
UVM_INFO /home/dvft1103/dvft11/uvm/apb_project/verification/test/apb_error_seq.sv(35) @ 115: uvm_test_top.env_h.act_agent_h.seqr_h@@error_h [apb_error_seq] Dispalying From apb_error_seq=-----------------------------------------------------------------------------------------------------
Name                           Type               Size  Value                                        
-----------------------------------------------------------------------------------------------------
seq_h                          apb_sequence_item  -     @994                                         
  psel                         integral           1     'h0                                          
  continuous_psel              integral           1     'h0                                          
  penable                      integral           1     'h0                                          
  pready                       integral           1     'h0                                          
  paddr                        integral           32    'hffffffff                                   
  pwrite                       integral           1     'h0                                          
  prdata                       integral           32    'h0                                          
  pwdata                       integral           32    'hcde7c59f                                   
  pslverr                      integral           1     'h0                                          
  apb_state                    apb_state_e        2     ""                                           
  begin_time                   time               64    115                                          
  depth                        int                32    'd2                                          
  parent sequence (name)       string             7     error_h                                      
  parent sequence (full name)  string             45    uvm_test_top.env_h.act_agent_h.seqr_h.error_h
  sequencer                    string             37    uvm_test_top.env_h.act_agent_h.seqr_h        
-----------------------------------------------------------------------------------------------------

UVM_INFO /home/dvft1103/dvft11/uvm/apb_project/verification/agent/apb_driver.sv(52) @ 115: uvm_test_top.env_h.act_agent_h.drv_h [DRIVER] Displaying from apb_driver=-----------------------------------------------------------------------------------------------------
Name                           Type               Size  Value                                        
-----------------------------------------------------------------------------------------------------
seq_h                          apb_sequence_item  -     @994                                         
  psel                         integral           1     'h0                                          
  continuous_psel              integral           1     'h0                                          
  penable                      integral           1     'h0                                          
  pready                       integral           1     'h0                                          
  paddr                        integral           32    'hffffffff                                   
  pwrite                       integral           1     'h0                                          
  prdata                       integral           32    'h0                                          
  pwdata                       integral           32    'hcde7c59f                                   
  pslverr                      integral           1     'h0                                          
  apb_state                    apb_state_e        2     ""                                           
  begin_time                   time               64    115                                          
  depth                        int                32    'd2                                          
  parent sequence (name)       string             7     error_h                                      
  parent sequence (full name)  string             45    uvm_test_top.env_h.act_agent_h.seqr_h.error_h
  sequencer                    string             37    uvm_test_top.env_h.act_agent_h.seqr_h        
-----------------------------------------------------------------------------------------------------

UVM_INFO /home/dvft1103/dvft11/uvm/apb_project/verification/agent/apb_driver.sv(63) @ 115: uvm_test_top.env_h.act_agent_h.drv_h [[DRV]] Entered SETUP State
UVM_INFO /home/dvft1103/dvft11/uvm/apb_project/verification/env/apb_score_board.sv(51) @ 120: uvm_test_top.env_h.sb_h [[SB]] [ACTIVE] paddr=0x0 pwrite=0 pwdata=0x0 prdata=0x0 pslverr=0
UVM_INFO /home/dvft1103/dvft11/uvm/apb_project/verification/agent/apb_active_monitor.sv(57) @ 120: uvm_test_top.env_h.act_agent_h.act_mon_h [[ACTIVE_MON]] setup detected:::::- ------------------------------------------------------
Name               Type               Size  Value     
------------------------------------------------------
seq_h              apb_sequence_item  -     @1008     
  psel             integral           1     'h1       
  continuous_psel  integral           1     'h0       
  penable          integral           1     'h0       
  pready           integral           1     'h1       
  paddr            integral           32    'hffffffff
  pwrite           integral           1     'h0       
  prdata           integral           32    'h0       
  pwdata           integral           32    'hcde7c59f
  pslverr          integral           1     'h0       
  apb_state        apb_state_e        2     IDLE      
------------------------------------------------------

UVM_INFO /home/dvft1103/dvft11/uvm/apb_project/verification/env/apb_score_board.sv(51) @ 120: uvm_test_top.env_h.sb_h [[SB]] [ACTIVE] paddr=0xffffffff pwrite=0 pwdata=0xcde7c59f prdata=0x0 pslverr=0
UVM_INFO /home/dvft1103/dvft11/uvm/apb_project/verification/env/apb_score_board.sv(61) @ 120: uvm_test_top.env_h.sb_h [[SB]] [PASSIVE] paddr=0x0 pwrite=0 pwdata=0x0 prdata=0x0 pslverr=0
UVM_WARNING /home/dvft1103/dvft11/uvm/apb_project/verification/env/apb_score_board.sv(150) @ 120: uvm_test_top.env_h.sb_h [[SB]] [120] READ from uninitialised addr 0x0 --- no ref
UVM_INFO /home/dvft1103/dvft11/uvm/apb_project/verification/agent/apb_passive_monitor.sv(52) @ 120: uvm_test_top.env_h.pas_agent_h.pas_mon_h [[PASSIVE_MON]] setup detected:::::- ------------------------------------------------------
Name               Type               Size  Value     
------------------------------------------------------
seq_h              apb_sequence_item  -     @1034     
  psel             integral           1     'h1       
  continuous_psel  integral           1     'h0       
  penable          integral           1     'h0       
  pready           integral           1     'h1       
  paddr            integral           32    'hffffffff
  pwrite           integral           1     'h0       
  prdata           integral           32    'h0       
  pwdata           integral           32    'hcde7c59f
  pslverr          integral           1     'h0       
  apb_state        apb_state_e        2     IDLE      
------------------------------------------------------

UVM_INFO /home/dvft1103/dvft11/uvm/apb_project/verification/env/apb_score_board.sv(61) @ 120: uvm_test_top.env_h.sb_h [[SB]] [PASSIVE] paddr=0xffffffff pwrite=0 pwdata=0xcde7c59f prdata=0x0 pslverr=0
UVM_WARNING /home/dvft1103/dvft11/uvm/apb_project/verification/env/apb_score_board.sv(150) @ 120: uvm_test_top.env_h.sb_h [[SB]] [120] READ from uninitialised addr 0xffffffff --- no ref
UVM_INFO /home/dvft1103/dvft11/uvm/apb_project/verification/agent/apb_driver.sv(81) @ 125: uvm_test_top.env_h.act_agent_h.drv_h [[DRV]] Entered ACCESS State
UVM_INFO /home/dvft1103/dvft11/uvm/apb_project/verification/env/apb_score_board.sv(51) @ 130: uvm_test_top.env_h.sb_h [[SB]] [ACTIVE] paddr=0xffffffff pwrite=0 pwdata=0xcde7c59f prdata=0x0 pslverr=0
UVM_INFO /home/dvft1103/dvft11/uvm/apb_project/verification/env/apb_score_board.sv(61) @ 130: uvm_test_top.env_h.sb_h [[SB]] [PASSIVE] paddr=0xffffffff pwrite=0 pwdata=0xcde7c59f prdata=0x0 pslverr=0
UVM_WARNING /home/dvft1103/dvft11/uvm/apb_project/verification/env/apb_score_board.sv(150) @ 130: uvm_test_top.env_h.sb_h [[SB]] [130] READ from uninitialised addr 0xffffffff --- no ref
UVM_INFO /home/dvft1103/dvft11/uvm/apb_project/verification/agent/apb_driver.sv(107) @ 145: uvm_test_top.env_h.act_agent_h.drv_h [[DRV]] Pready occured at wait_count=1 4294967295 3454518687
UVM_INFO /home/dvft1103/dvft11/uvm/apb_project/verification/env/apb_score_board.sv(51) @ 150: uvm_test_top.env_h.sb_h [[SB]] [ACTIVE] paddr=0xffffffff pwrite=0 pwdata=0xcde7c59f prdata=0x0 pslverr=1
UVM_INFO /home/dvft1103/dvft11/uvm/apb_project/verification/agent/apb_active_monitor.sv(85) @ 150: uvm_test_top.env_h.act_agent_h.act_mon_h [[ACTIVE_MON]]  Transaction sent to scoreboard
UVM_INFO /home/dvft1103/dvft11/uvm/apb_project/verification/env/apb_score_board.sv(61) @ 150: uvm_test_top.env_h.sb_h [[SB]] [PASSIVE] paddr=0xffffffff pwrite=0 pwdata=0xcde7c59f prdata=0x0 pslverr=1
UVM_ERROR /home/dvft1103/dvft11/uvm/apb_project/verification/env/apb_score_board.sv(84) @ 150: uvm_test_top.env_h.sb_h [[SB]] [150] SLAVE ERROR:paddr=0xffffffff pwrite =0x0 act_pslverr=1 pas_pslverr=1
UVM_INFO /home/dvft1103/dvft11/uvm/apb_project/verification/agent/apb_passive_monitor.sv(79) @ 150: uvm_test_top.env_h.pas_agent_h.pas_mon_h [[PASSIVE_MON]]  Transaction sent to scoreboard
UVM_INFO /home/dvft1103/dvft11/uvm/apb_project/verification/agent/apb_driver.sv(110) @ 155: uvm_test_top.env_h.act_agent_h.drv_h [[DRV]] Transaction completed
UVM_INFO /home/dvft1103/dvft11/uvm/apb_project/verification/test/apb_error_seq.sv(35) @ 165: uvm_test_top.env_h.act_agent_h.seqr_h@@error_h [apb_error_seq] Dispalying From apb_error_seq=-----------------------------------------------------------------------------------------------------
Name                           Type               Size  Value                                        
-----------------------------------------------------------------------------------------------------
seq_h                          apb_sequence_item  -     @1118                                        
  psel                         integral           1     'h0                                          
  continuous_psel              integral           1     'h0                                          
  penable                      integral           1     'h0                                          
  pready                       integral           1     'h0                                          
  paddr                        integral           32    'hffffffff                                   
  pwrite                       integral           1     'h0                                          
  prdata                       integral           32    'h0                                          
  pwdata                       integral           32    'hb4552366                                   
  pslverr                      integral           1     'h0                                          
  apb_state                    apb_state_e        2     ""                                           
  begin_time                   time               64    165                                          
  depth                        int                32    'd2                                          
  parent sequence (name)       string             7     error_h                                      
  parent sequence (full name)  string             45    uvm_test_top.env_h.act_agent_h.seqr_h.error_h
  sequencer                    string             37    uvm_test_top.env_h.act_agent_h.seqr_h        
-----------------------------------------------------------------------------------------------------

UVM_INFO /home/dvft1103/dvft11/uvm/apb_project/verification/agent/apb_driver.sv(52) @ 165: uvm_test_top.env_h.act_agent_h.drv_h [DRIVER] Displaying from apb_driver=-----------------------------------------------------------------------------------------------------
Name                           Type               Size  Value                                        
-----------------------------------------------------------------------------------------------------
seq_h                          apb_sequence_item  -     @1118                                        
  psel                         integral           1     'h0                                          
  continuous_psel              integral           1     'h0                                          
  penable                      integral           1     'h0                                          
  pready                       integral           1     'h0                                          
  paddr                        integral           32    'hffffffff                                   
  pwrite                       integral           1     'h0                                          
  prdata                       integral           32    'h0                                          
  pwdata                       integral           32    'hb4552366                                   
  pslverr                      integral           1     'h0                                          
  apb_state                    apb_state_e        2     ""                                           
  begin_time                   time               64    165                                          
  depth                        int                32    'd2                                          
  parent sequence (name)       string             7     error_h                                      
  parent sequence (full name)  string             45    uvm_test_top.env_h.act_agent_h.seqr_h.error_h
  sequencer                    string             37    uvm_test_top.env_h.act_agent_h.seqr_h        
-----------------------------------------------------------------------------------------------------

UVM_INFO /home/dvft1103/dvft11/uvm/apb_project/verification/agent/apb_driver.sv(63) @ 165: uvm_test_top.env_h.act_agent_h.drv_h [[DRV]] Entered SETUP State
UVM_INFO /home/dvft1103/dvft11/uvm/apb_project/verification/env/apb_score_board.sv(51) @ 170: uvm_test_top.env_h.sb_h [[SB]] [ACTIVE] paddr=0x0 pwrite=0 pwdata=0x0 prdata=0x0 pslverr=0
UVM_INFO /home/dvft1103/dvft11/uvm/apb_project/verification/agent/apb_active_monitor.sv(57) @ 170: uvm_test_top.env_h.act_agent_h.act_mon_h [[ACTIVE_MON]] setup detected:::::- ------------------------------------------------------
Name               Type               Size  Value     
------------------------------------------------------
seq_h              apb_sequence_item  -     @1132     
  psel             integral           1     'h1       
  continuous_psel  integral           1     'h0       
  penable          integral           1     'h0       
  pready           integral           1     'h1       
  paddr            integral           32    'hffffffff
  pwrite           integral           1     'h0       
  prdata           integral           32    'h0       
  pwdata           integral           32    'hb4552366
  pslverr          integral           1     'h0       
  apb_state        apb_state_e        2     IDLE      
------------------------------------------------------

UVM_INFO /home/dvft1103/dvft11/uvm/apb_project/verification/env/apb_score_board.sv(51) @ 170: uvm_test_top.env_h.sb_h [[SB]] [ACTIVE] paddr=0xffffffff pwrite=0 pwdata=0xb4552366 prdata=0x0 pslverr=0
UVM_INFO /home/dvft1103/dvft11/uvm/apb_project/verification/env/apb_score_board.sv(61) @ 170: uvm_test_top.env_h.sb_h [[SB]] [PASSIVE] paddr=0x0 pwrite=0 pwdata=0x0 prdata=0x0 pslverr=0
UVM_WARNING /home/dvft1103/dvft11/uvm/apb_project/verification/env/apb_score_board.sv(150) @ 170: uvm_test_top.env_h.sb_h [[SB]] [170] READ from uninitialised addr 0x0 --- no ref
UVM_INFO /home/dvft1103/dvft11/uvm/apb_project/verification/agent/apb_passive_monitor.sv(52) @ 170: uvm_test_top.env_h.pas_agent_h.pas_mon_h [[PASSIVE_MON]] setup detected:::::- ------------------------------------------------------
Name               Type               Size  Value     
------------------------------------------------------
seq_h              apb_sequence_item  -     @1158     
  psel             integral           1     'h1       
  continuous_psel  integral           1     'h0       
  penable          integral           1     'h0       
  pready           integral           1     'h1       
  paddr            integral           32    'hffffffff
  pwrite           integral           1     'h0       
  prdata           integral           32    'h0       
  pwdata           integral           32    'hb4552366
  pslverr          integral           1     'h0       
  apb_state        apb_state_e        2     IDLE      
------------------------------------------------------

UVM_INFO /home/dvft1103/dvft11/uvm/apb_project/verification/env/apb_score_board.sv(61) @ 170: uvm_test_top.env_h.sb_h [[SB]] [PASSIVE] paddr=0xffffffff pwrite=0 pwdata=0xb4552366 prdata=0x0 pslverr=0
UVM_WARNING /home/dvft1103/dvft11/uvm/apb_project/verification/env/apb_score_board.sv(150) @ 170: uvm_test_top.env_h.sb_h [[SB]] [170] READ from uninitialised addr 0xffffffff --- no ref
UVM_INFO /home/dvft1103/dvft11/uvm/apb_project/verification/agent/apb_driver.sv(81) @ 175: uvm_test_top.env_h.act_agent_h.drv_h [[DRV]] Entered ACCESS State
UVM_INFO /home/dvft1103/dvft11/uvm/apb_project/verification/env/apb_score_board.sv(51) @ 180: uvm_test_top.env_h.sb_h [[SB]] [ACTIVE] paddr=0xffffffff pwrite=0 pwdata=0xb4552366 prdata=0x0 pslverr=0
UVM_INFO /home/dvft1103/dvft11/uvm/apb_project/verification/env/apb_score_board.sv(61) @ 180: uvm_test_top.env_h.sb_h [[SB]] [PASSIVE] paddr=0xffffffff pwrite=0 pwdata=0xb4552366 prdata=0x0 pslverr=0
UVM_WARNING /home/dvft1103/dvft11/uvm/apb_project/verification/env/apb_score_board.sv(150) @ 180: uvm_test_top.env_h.sb_h [[SB]] [180] READ from uninitialised addr 0xffffffff --- no ref
UVM_INFO /home/dvft1103/dvft11/uvm/apb_project/verification/agent/apb_driver.sv(107) @ 185: uvm_test_top.env_h.act_agent_h.drv_h [[DRV]] Pready occured at wait_count=0 4294967295 3025478502
UVM_INFO /home/dvft1103/dvft11/uvm/apb_project/verification/env/apb_score_board.sv(51) @ 190: uvm_test_top.env_h.sb_h [[SB]] [ACTIVE] paddr=0xffffffff pwrite=0 pwdata=0xb4552366 prdata=0x0 pslverr=1
UVM_INFO /home/dvft1103/dvft11/uvm/apb_project/verification/agent/apb_active_monitor.sv(85) @ 190: uvm_test_top.env_h.act_agent_h.act_mon_h [[ACTIVE_MON]]  Transaction sent to scoreboard
UVM_INFO /home/dvft1103/dvft11/uvm/apb_project/verification/env/apb_score_board.sv(61) @ 190: uvm_test_top.env_h.sb_h [[SB]] [PASSIVE] paddr=0xffffffff pwrite=0 pwdata=0xb4552366 prdata=0x0 pslverr=1
UVM_ERROR /home/dvft1103/dvft11/uvm/apb_project/verification/env/apb_score_board.sv(84) @ 190: uvm_test_top.env_h.sb_h [[SB]] [190] SLAVE ERROR:paddr=0xffffffff pwrite =0x0 act_pslverr=1 pas_pslverr=1
UVM_INFO /home/dvft1103/dvft11/uvm/apb_project/verification/agent/apb_passive_monitor.sv(79) @ 190: uvm_test_top.env_h.pas_agent_h.pas_mon_h [[PASSIVE_MON]]  Transaction sent to scoreboard
UVM_INFO /home/dvft1103/dvft11/uvm/apb_project/verification/agent/apb_driver.sv(110) @ 195: uvm_test_top.env_h.act_agent_h.drv_h [[DRV]] Transaction completed
UVM_INFO /home/dvft1103/dvft11/uvm/apb_project/verification/test/apb_error_seq.sv(35) @ 205: uvm_test_top.env_h.act_agent_h.seqr_h@@error_h [apb_error_seq] Dispalying From apb_error_seq=-----------------------------------------------------------------------------------------------------
Name                           Type               Size  Value                                        
-----------------------------------------------------------------------------------------------------
seq_h                          apb_sequence_item  -     @1242                                        
  psel                         integral           1     'h0                                          
  continuous_psel              integral           1     'h0                                          
  penable                      integral           1     'h0                                          
  pready                       integral           1     'h0                                          
  paddr                        integral           32    'hffffffff                                   
  pwrite                       integral           1     'h0                                          
  prdata                       integral           32    'h0                                          
  pwdata                       integral           32    'hf3bd5f28                                   
  pslverr                      integral           1     'h0                                          
  apb_state                    apb_state_e        2     ""                                           
  begin_time                   time               64    205                                          
  depth                        int                32    'd2                                          
  parent sequence (name)       string             7     error_h                                      
  parent sequence (full name)  string             45    uvm_test_top.env_h.act_agent_h.seqr_h.error_h
  sequencer                    string             37    uvm_test_top.env_h.act_agent_h.seqr_h        
-----------------------------------------------------------------------------------------------------

UVM_INFO /home/dvft1103/dvft11/uvm/apb_project/verification/agent/apb_driver.sv(52) @ 205: uvm_test_top.env_h.act_agent_h.drv_h [DRIVER] Displaying from apb_driver=-----------------------------------------------------------------------------------------------------
Name                           Type               Size  Value                                        
-----------------------------------------------------------------------------------------------------
seq_h                          apb_sequence_item  -     @1242                                        
  psel                         integral           1     'h0                                          
  continuous_psel              integral           1     'h0                                          
  penable                      integral           1     'h0                                          
  pready                       integral           1     'h0                                          
  paddr                        integral           32    'hffffffff                                   
  pwrite                       integral           1     'h0                                          
  prdata                       integral           32    'h0                                          
  pwdata                       integral           32    'hf3bd5f28                                   
  pslverr                      integral           1     'h0                                          
  apb_state                    apb_state_e        2     ""                                           
  begin_time                   time               64    205                                          
  depth                        int                32    'd2                                          
  parent sequence (name)       string             7     error_h                                      
  parent sequence (full name)  string             45    uvm_test_top.env_h.act_agent_h.seqr_h.error_h
  sequencer                    string             37    uvm_test_top.env_h.act_agent_h.seqr_h        
-----------------------------------------------------------------------------------------------------

UVM_INFO /home/dvft1103/dvft11/uvm/apb_project/verification/agent/apb_driver.sv(63) @ 205: uvm_test_top.env_h.act_agent_h.drv_h [[DRV]] Entered SETUP State
UVM_INFO /home/dvft1103/dvft11/uvm/apb_project/verification/env/apb_score_board.sv(51) @ 210: uvm_test_top.env_h.sb_h [[SB]] [ACTIVE] paddr=0x0 pwrite=0 pwdata=0x0 prdata=0x0 pslverr=0
UVM_INFO /home/dvft1103/dvft11/uvm/apb_project/verification/agent/apb_active_monitor.sv(57) @ 210: uvm_test_top.env_h.act_agent_h.act_mon_h [[ACTIVE_MON]] setup detected:::::- ------------------------------------------------------
Name               Type               Size  Value     
------------------------------------------------------
seq_h              apb_sequence_item  -     @1256     
  psel             integral           1     'h1       
  continuous_psel  integral           1     'h0       
  penable          integral           1     'h0       
  pready           integral           1     'h1       
  paddr            integral           32    'hffffffff
  pwrite           integral           1     'h0       
  prdata           integral           32    'h0       
  pwdata           integral           32    'hf3bd5f28
  pslverr          integral           1     'h0       
  apb_state        apb_state_e        2     IDLE      
------------------------------------------------------

UVM_INFO /home/dvft1103/dvft11/uvm/apb_project/verification/env/apb_score_board.sv(51) @ 210: uvm_test_top.env_h.sb_h [[SB]] [ACTIVE] paddr=0xffffffff pwrite=0 pwdata=0xf3bd5f28 prdata=0x0 pslverr=0
UVM_INFO /home/dvft1103/dvft11/uvm/apb_project/verification/env/apb_score_board.sv(61) @ 210: uvm_test_top.env_h.sb_h [[SB]] [PASSIVE] paddr=0x0 pwrite=0 pwdata=0x0 prdata=0x0 pslverr=0
UVM_WARNING /home/dvft1103/dvft11/uvm/apb_project/verification/env/apb_score_board.sv(150) @ 210: uvm_test_top.env_h.sb_h [[SB]] [210] READ from uninitialised addr 0x0 --- no ref
UVM_INFO /home/dvft1103/dvft11/uvm/apb_project/verification/agent/apb_passive_monitor.sv(52) @ 210: uvm_test_top.env_h.pas_agent_h.pas_mon_h [[PASSIVE_MON]] setup detected:::::- ------------------------------------------------------
Name               Type               Size  Value     
------------------------------------------------------
seq_h              apb_sequence_item  -     @1282     
  psel             integral           1     'h1       
  continuous_psel  integral           1     'h0       
  penable          integral           1     'h0       
  pready           integral           1     'h1       
  paddr            integral           32    'hffffffff
  pwrite           integral           1     'h0       
  prdata           integral           32    'h0       
  pwdata           integral           32    'hf3bd5f28
  pslverr          integral           1     'h0       
  apb_state        apb_state_e        2     IDLE      
------------------------------------------------------

UVM_INFO /home/dvft1103/dvft11/uvm/apb_project/verification/env/apb_score_board.sv(61) @ 210: uvm_test_top.env_h.sb_h [[SB]] [PASSIVE] paddr=0xffffffff pwrite=0 pwdata=0xf3bd5f28 prdata=0x0 pslverr=0
UVM_WARNING /home/dvft1103/dvft11/uvm/apb_project/verification/env/apb_score_board.sv(150) @ 210: uvm_test_top.env_h.sb_h [[SB]] [210] READ from uninitialised addr 0xffffffff --- no ref
UVM_INFO /home/dvft1103/dvft11/uvm/apb_project/verification/agent/apb_driver.sv(81) @ 215: uvm_test_top.env_h.act_agent_h.drv_h [[DRV]] Entered ACCESS State
UVM_INFO /home/dvft1103/dvft11/uvm/apb_project/verification/env/apb_score_board.sv(51) @ 220: uvm_test_top.env_h.sb_h [[SB]] [ACTIVE] paddr=0xffffffff pwrite=0 pwdata=0xf3bd5f28 prdata=0x0 pslverr=0
UVM_INFO /home/dvft1103/dvft11/uvm/apb_project/verification/env/apb_score_board.sv(61) @ 220: uvm_test_top.env_h.sb_h [[SB]] [PASSIVE] paddr=0xffffffff pwrite=0 pwdata=0xf3bd5f28 prdata=0x0 pslverr=0
UVM_WARNING /home/dvft1103/dvft11/uvm/apb_project/verification/env/apb_score_board.sv(150) @ 220: uvm_test_top.env_h.sb_h [[SB]] [220] READ from uninitialised addr 0xffffffff --- no ref
UVM_INFO /home/dvft1103/dvft11/uvm/apb_project/verification/agent/apb_driver.sv(107) @ 225: uvm_test_top.env_h.act_agent_h.drv_h [[DRV]] Pready occured at wait_count=0 4294967295 4089274152
UVM_INFO /home/dvft1103/dvft11/uvm/apb_project/verification/env/apb_score_board.sv(51) @ 230: uvm_test_top.env_h.sb_h [[SB]] [ACTIVE] paddr=0xffffffff pwrite=0 pwdata=0xf3bd5f28 prdata=0x0 pslverr=1
UVM_INFO /home/dvft1103/dvft11/uvm/apb_project/verification/agent/apb_active_monitor.sv(85) @ 230: uvm_test_top.env_h.act_agent_h.act_mon_h [[ACTIVE_MON]]  Transaction sent to scoreboard
UVM_INFO /home/dvft1103/dvft11/uvm/apb_project/verification/env/apb_score_board.sv(61) @ 230: uvm_test_top.env_h.sb_h [[SB]] [PASSIVE] paddr=0xffffffff pwrite=0 pwdata=0xf3bd5f28 prdata=0x0 pslverr=1
UVM_ERROR /home/dvft1103/dvft11/uvm/apb_project/verification/env/apb_score_board.sv(84) @ 230: uvm_test_top.env_h.sb_h [[SB]] [230] SLAVE ERROR:paddr=0xffffffff pwrite =0x0 act_pslverr=1 pas_pslverr=1
UVM_INFO /home/dvft1103/dvft11/uvm/apb_project/verification/agent/apb_passive_monitor.sv(79) @ 230: uvm_test_top.env_h.pas_agent_h.pas_mon_h [[PASSIVE_MON]]  Transaction sent to scoreboard
UVM_INFO /home/dvft1103/dvft11/uvm/apb_project/verification/agent/apb_driver.sv(110) @ 235: uvm_test_top.env_h.act_agent_h.drv_h [[DRV]] Transaction completed
UVM_INFO /home/dvft1103/dvft11/uvm/apb_project/verification/test/apb_error_seq.sv(35) @ 245: uvm_test_top.env_h.act_agent_h.seqr_h@@error_h [apb_error_seq] Dispalying From apb_error_seq=-----------------------------------------------------------------------------------------------------
Name                           Type               Size  Value                                        
-----------------------------------------------------------------------------------------------------
seq_h                          apb_sequence_item  -     @1366                                        
  psel                         integral           1     'h0                                          
  continuous_psel              integral           1     'h0                                          
  penable                      integral           1     'h0                                          
  pready                       integral           1     'h0                                          
  paddr                        integral           32    'hffffffff                                   
  pwrite                       integral           1     'h0                                          
  prdata                       integral           32    'h0                                          
  pwdata                       integral           32    'hacaf27f8                                   
  pslverr                      integral           1     'h0                                          
  apb_state                    apb_state_e        2     ""                                           
  begin_time                   time               64    245                                          
  depth                        int                32    'd2                                          
  parent sequence (name)       string             7     error_h                                      
  parent sequence (full name)  string             45    uvm_test_top.env_h.act_agent_h.seqr_h.error_h
  sequencer                    string             37    uvm_test_top.env_h.act_agent_h.seqr_h        
-----------------------------------------------------------------------------------------------------

UVM_INFO /home/dvft1103/dvft11/uvm/apb_project/verification/agent/apb_driver.sv(52) @ 245: uvm_test_top.env_h.act_agent_h.drv_h [DRIVER] Displaying from apb_driver=-----------------------------------------------------------------------------------------------------
Name                           Type               Size  Value                                        
-----------------------------------------------------------------------------------------------------
seq_h                          apb_sequence_item  -     @1366                                        
  psel                         integral           1     'h0                                          
  continuous_psel              integral           1     'h0                                          
  penable                      integral           1     'h0                                          
  pready                       integral           1     'h0                                          
  paddr                        integral           32    'hffffffff                                   
  pwrite                       integral           1     'h0                                          
  prdata                       integral           32    'h0                                          
  pwdata                       integral           32    'hacaf27f8                                   
  pslverr                      integral           1     'h0                                          
  apb_state                    apb_state_e        2     ""                                           
  begin_time                   time               64    245                                          
  depth                        int                32    'd2                                          
  parent sequence (name)       string             7     error_h                                      
  parent sequence (full name)  string             45    uvm_test_top.env_h.act_agent_h.seqr_h.error_h
  sequencer                    string             37    uvm_test_top.env_h.act_agent_h.seqr_h        
-----------------------------------------------------------------------------------------------------

UVM_INFO /home/dvft1103/dvft11/uvm/apb_project/verification/agent/apb_driver.sv(63) @ 245: uvm_test_top.env_h.act_agent_h.drv_h [[DRV]] Entered SETUP State
UVM_INFO /home/dvft1103/dvft11/uvm/apb_project/verification/env/apb_score_board.sv(51) @ 250: uvm_test_top.env_h.sb_h [[SB]] [ACTIVE] paddr=0x0 pwrite=0 pwdata=0x0 prdata=0x0 pslverr=0
UVM_INFO /home/dvft1103/dvft11/uvm/apb_project/verification/agent/apb_active_monitor.sv(57) @ 250: uvm_test_top.env_h.act_agent_h.act_mon_h [[ACTIVE_MON]] setup detected:::::- ------------------------------------------------------
Name               Type               Size  Value     
------------------------------------------------------
seq_h              apb_sequence_item  -     @1380     
  psel             integral           1     'h1       
  continuous_psel  integral           1     'h0       
  penable          integral           1     'h0       
  pready           integral           1     'h1       
  paddr            integral           32    'hffffffff
  pwrite           integral           1     'h0       
  prdata           integral           32    'h0       
  pwdata           integral           32    'hacaf27f8
  pslverr          integral           1     'h0       
  apb_state        apb_state_e        2     IDLE      
------------------------------------------------------

UVM_INFO /home/dvft1103/dvft11/uvm/apb_project/verification/env/apb_score_board.sv(51) @ 250: uvm_test_top.env_h.sb_h [[SB]] [ACTIVE] paddr=0xffffffff pwrite=0 pwdata=0xacaf27f8 prdata=0x0 pslverr=0
UVM_INFO /home/dvft1103/dvft11/uvm/apb_project/verification/env/apb_score_board.sv(61) @ 250: uvm_test_top.env_h.sb_h [[SB]] [PASSIVE] paddr=0x0 pwrite=0 pwdata=0x0 prdata=0x0 pslverr=0
UVM_WARNING /home/dvft1103/dvft11/uvm/apb_project/verification/env/apb_score_board.sv(150) @ 250: uvm_test_top.env_h.sb_h [[SB]] [250] READ from uninitialised addr 0x0 --- no ref
UVM_INFO /home/dvft1103/dvft11/uvm/apb_project/verification/agent/apb_passive_monitor.sv(52) @ 250: uvm_test_top.env_h.pas_agent_h.pas_mon_h [[PASSIVE_MON]] setup detected:::::- ------------------------------------------------------
Name               Type               Size  Value     
------------------------------------------------------
seq_h              apb_sequence_item  -     @1406     
  psel             integral           1     'h1       
  continuous_psel  integral           1     'h0       
  penable          integral           1     'h0       
  pready           integral           1     'h1       
  paddr            integral           32    'hffffffff
  pwrite           integral           1     'h0       
  prdata           integral           32    'h0       
  pwdata           integral           32    'hacaf27f8
  pslverr          integral           1     'h0       
  apb_state        apb_state_e        2     IDLE      
------------------------------------------------------

UVM_INFO /home/dvft1103/dvft11/uvm/apb_project/verification/env/apb_score_board.sv(61) @ 250: uvm_test_top.env_h.sb_h [[SB]] [PASSIVE] paddr=0xffffffff pwrite=0 pwdata=0xacaf27f8 prdata=0x0 pslverr=0
UVM_WARNING /home/dvft1103/dvft11/uvm/apb_project/verification/env/apb_score_board.sv(150) @ 250: uvm_test_top.env_h.sb_h [[SB]] [250] READ from uninitialised addr 0xffffffff --- no ref
UVM_INFO /home/dvft1103/dvft11/uvm/apb_project/verification/agent/apb_driver.sv(81) @ 255: uvm_test_top.env_h.act_agent_h.drv_h [[DRV]] Entered ACCESS State
UVM_INFO /home/dvft1103/dvft11/uvm/apb_project/verification/env/apb_score_board.sv(51) @ 260: uvm_test_top.env_h.sb_h [[SB]] [ACTIVE] paddr=0xffffffff pwrite=0 pwdata=0xacaf27f8 prdata=0x0 pslverr=0
UVM_INFO /home/dvft1103/dvft11/uvm/apb_project/verification/env/apb_score_board.sv(51) @ 260: uvm_test_top.env_h.sb_h [[SB]] [ACTIVE] paddr=0xffffffff pwrite=0 pwdata=0xacaf27f8 prdata=0x0 pslverr=1
UVM_INFO /home/dvft1103/dvft11/uvm/apb_project/verification/agent/apb_active_monitor.sv(85) @ 260: uvm_test_top.env_h.act_agent_h.act_mon_h [[ACTIVE_MON]]  Transaction sent to scoreboard
UVM_INFO /home/dvft1103/dvft11/uvm/apb_project/verification/env/apb_score_board.sv(61) @ 260: uvm_test_top.env_h.sb_h [[SB]] [PASSIVE] paddr=0xffffffff pwrite=0 pwdata=0xacaf27f8 prdata=0x0 pslverr=0
UVM_WARNING /home/dvft1103/dvft11/uvm/apb_project/verification/env/apb_score_board.sv(150) @ 260: uvm_test_top.env_h.sb_h [[SB]] [260] READ from uninitialised addr 0xffffffff --- no ref
UVM_INFO /home/dvft1103/dvft11/uvm/apb_project/verification/env/apb_score_board.sv(61) @ 260: uvm_test_top.env_h.sb_h [[SB]] [PASSIVE] paddr=0xffffffff pwrite=0 pwdata=0xacaf27f8 prdata=0x0 pslverr=1
UVM_ERROR /home/dvft1103/dvft11/uvm/apb_project/verification/env/apb_score_board.sv(84) @ 260: uvm_test_top.env_h.sb_h [[SB]] [260] SLAVE ERROR:paddr=0xffffffff pwrite =0x0 act_pslverr=1 pas_pslverr=1
