Command: vcs -full64 -sverilog -R -debug_access+all -ntb_opts uvm-1.2 apb_top.sv \
-l debug.log +continuous_psel=1 -cm line+tgl+cond+fsm+assert
                         Chronologic VCS (TM)
         Version W-2024.09_Full64 -- Wed May 13 15:35:57 2026

                    Copyright (c) 1991 - 2024 Synopsys, Inc.
   This software and the associated documentation are proprietary to Synopsys,
 Inc. This software may only be used in accordance with the terms and conditions
 of a written license agreement with Synopsys, Inc. All other use, reproduction,
   or distribution of this software is strictly prohibited.  Licensed Products
     communicate with Synopsys servers for the purpose of providing software
    updates, detecting software piracy and verifying that customers are using
    Licensed Products in conformity with the applicable License Key for such
  Licensed Products. Synopsys will use information gathered in connection with
    this process to deliver software updates and pursue software pirates and
                                   infringers.

 Inclusivity & Diversity - Visit SolvNetPlus to read the "Synopsys Statement on
            Inclusivity and Diversity" (Refer to article 000036315 at
                        https://solvnetplus.synopsys.com)

Parsing design file '/app/synopsys/installers/vcs/W-2024.09//etc/uvm-1.2/uvm_pkg.sv'
Parsing included file '/app/synopsys/installers/vcs/W-2024.09//etc/uvm-1.2/uvm_macros.svh'.
Parsing included file '/app/synopsys/installers/vcs/W-2024.09//etc/uvm-1.2/macros/uvm_version_defines.svh'.
Back to file '/app/synopsys/installers/vcs/W-2024.09//etc/uvm-1.2/uvm_macros.svh'.
Parsing included file '/app/synopsys/installers/vcs/W-2024.09//etc/uvm-1.2/macros/uvm_global_defines.svh'.
Back to file '/app/synopsys/installers/vcs/W-2024.09//etc/uvm-1.2/uvm_macros.svh'.
Parsing included file '/app/synopsys/installers/vcs/W-2024.09//etc/uvm-1.2/macros/snps_macros.svp'.
Back to file '/app/synopsys/installers/vcs/W-2024.09//etc/uvm-1.2/uvm_macros.svh'.
Parsing included file '/app/synopsys/installers/vcs/W-2024.09//etc/uvm-1.2/macros/uvm_message_defines.svh'.
Back to file '/app/synopsys/installers/vcs/W-2024.09//etc/uvm-1.2/uvm_macros.svh'.
Parsing included file '/app/synopsys/installers/vcs/W-2024.09//etc/uvm-1.2/macros/uvm_phase_defines.svh'.
Back to file '/app/synopsys/installers/vcs/W-2024.09//etc/uvm-1.2/uvm_macros.svh'.
Parsing included file '/app/synopsys/installers/vcs/W-2024.09//etc/uvm-1.2/macros/uvm_object_defines.svh'.
Back to file '/app/synopsys/installers/vcs/W-2024.09//etc/uvm-1.2/uvm_macros.svh'.
Parsing included file '/app/synopsys/installers/vcs/W-2024.09//etc/uvm-1.2/macros/uvm_printer_defines.svh'.
Back to file '/app/synopsys/installers/vcs/W-2024.09//etc/uvm-1.2/uvm_macros.svh'.
Parsing included file '/app/synopsys/installers/vcs/W-2024.09//etc/uvm-1.2/macros/uvm_tlm_defines.svh'.
Parsing included file '/app/synopsys/installers/vcs/W-2024.09//etc/uvm-1.2/tlm1/uvm_tlm_imps.svh'.
Back to file '/app/synopsys/installers/vcs/W-2024.09//etc/uvm-1.2/macros/uvm_tlm_defines.svh'.
Back to file '/app/synopsys/installers/vcs/W-2024.09//etc/uvm-1.2/uvm_macros.svh'.
Parsing included file '/app/synopsys/installers/vcs/W-2024.09//etc/uvm-1.2/macros/uvm_sequence_defines.svh'.
Back to file '/app/synopsys/installers/vcs/W-2024.09//etc/uvm-1.2/uvm_macros.svh'.
Parsing included file '/app/synopsys/installers/vcs/W-2024.09//etc/uvm-1.2/macros/uvm_callback_defines.svh'.
Back to file '/app/synopsys/installers/vcs/W-2024.09//etc/uvm-1.2/uvm_macros.svh'.
Parsing included file '/app/synopsys/installers/vcs/W-2024.09//etc/uvm-1.2/macros/uvm_reg_defines.svh'.
Back to file '/app/synopsys/installers/vcs/W-2024.09//etc/uvm-1.2/uvm_macros.svh'.
Parsing included file '/app/synopsys/installers/vcs/W-2024.09//etc/uvm-1.2/macros/uvm_deprecated_defines.svh'.
Back to file '/app/synopsys/installers/vcs/W-2024.09//etc/uvm-1.2/uvm_macros.svh'.
Back to file '/app/synopsys/installers/vcs/W-2024.09//etc/uvm-1.2/uvm_pkg.sv'.
Parsing included file '/app/synopsys/installers/vcs/W-2024.09//etc/uvm-1.2/dpi/uvm_dpi.svh'.
Parsing included file '/app/synopsys/installers/vcs/W-2024.09//etc/uvm-1.2/dpi/uvm_hdl.svh'.
Back to file '/app/synopsys/installers/vcs/W-2024.09//etc/uvm-1.2/dpi/uvm_dpi.svh'.
Parsing included file '/app/synopsys/installers/vcs/W-2024.09//etc/uvm-1.2/dpi/uvm_svcmd_dpi.svh'.
Back to file '/app/synopsys/installers/vcs/W-2024.09//etc/uvm-1.2/dpi/uvm_dpi.svh'.
Parsing included file '/app/synopsys/installers/vcs/W-2024.09//etc/uvm-1.2/dpi/uvm_regex.svh'.
Back to file '/app/synopsys/installers/vcs/W-2024.09//etc/uvm-1.2/dpi/uvm_dpi.svh'.
Back to file '/app/synopsys/installers/vcs/W-2024.09//etc/uvm-1.2/uvm_pkg.sv'.
Parsing included file '/app/synopsys/installers/vcs/W-2024.09//etc/uvm-1.2/base/uvm_base.svh'.
Parsing included file '/app/synopsys/installers/vcs/W-2024.09//etc/uvm-1.2/base/uvm_coreservice.svh'.
Back to file '/app/synopsys/installers/vcs/W-2024.09//etc/uvm-1.2/base/uvm_base.svh'.
Parsing included file '/app/synopsys/installers/vcs/W-2024.09//etc/uvm-1.2/base/uvm_version.svh'.
Back to file '/app/synopsys/installers/vcs/W-2024.09//etc/uvm-1.2/base/uvm_base.svh'.
Parsing included file '/app/synopsys/installers/vcs/W-2024.09//etc/uvm-1.2/base/uvm_object_globals.svh'.
Back to file '/app/synopsys/installers/vcs/W-2024.09//etc/uvm-1.2/base/uvm_base.svh'.
Parsing included file '/app/synopsys/installers/vcs/W-2024.09//etc/uvm-1.2/base/uvm_misc.svh'.
Back to file '/app/synopsys/installers/vcs/W-2024.09//etc/uvm-1.2/base/uvm_base.svh'.
Parsing included file '/app/synopsys/installers/vcs/W-2024.09//etc/uvm-1.2/base/uvm_object.svh'.
Back to file '/app/synopsys/installers/vcs/W-2024.09//etc/uvm-1.2/base/uvm_base.svh'.
Parsing included file '/app/synopsys/installers/vcs/W-2024.09//etc/uvm-1.2/base/uvm_pool.svh'.
Back to file '/app/synopsys/installers/vcs/W-2024.09//etc/uvm-1.2/base/uvm_base.svh'.
Parsing included file '/app/synopsys/installers/vcs/W-2024.09//etc/uvm-1.2/base/uvm_queue.svh'.
Back to file '/app/synopsys/installers/vcs/W-2024.09//etc/uvm-1.2/base/uvm_base.svh'.
Parsing included file '/app/synopsys/installers/vcs/W-2024.09//etc/uvm-1.2/base/uvm_factory.svh'.
Back to file '/app/synopsys/installers/vcs/W-2024.09//etc/uvm-1.2/base/uvm_base.svh'.
Parsing included file '/app/synopsys/installers/vcs/W-2024.09//etc/uvm-1.2/base/uvm_registry.svh'.
Back to file '/app/synopsys/installers/vcs/W-2024.09//etc/uvm-1.2/base/uvm_base.svh'.
Parsing included file '/app/synopsys/installers/vcs/W-2024.09//etc/uvm-1.2/base/uvm_spell_chkr.svh'.
Back to file '/app/synopsys/installers/vcs/W-2024.09//etc/uvm-1.2/base/uvm_base.svh'.
Parsing included file '/app/synopsys/installers/vcs/W-2024.09//etc/uvm-1.2/base/uvm_resource.svh'.
Back to file '/app/synopsys/installers/vcs/W-2024.09//etc/uvm-1.2/base/uvm_base.svh'.
Parsing included file '/app/synopsys/installers/vcs/W-2024.09//etc/uvm-1.2/base/uvm_resource_specializations.svh'.
Back to file '/app/synopsys/installers/vcs/W-2024.09//etc/uvm-1.2/base/uvm_base.svh'.
Parsing included file '/app/synopsys/installers/vcs/W-2024.09//etc/uvm-1.2/base/uvm_resource_db.svh'.
Back to file '/app/synopsys/installers/vcs/W-2024.09//etc/uvm-1.2/base/uvm_base.svh'.
Parsing included file '/app/synopsys/installers/vcs/W-2024.09//etc/uvm-1.2/base/uvm_config_db.svh'.
Back to file '/app/synopsys/installers/vcs/W-2024.09//etc/uvm-1.2/base/uvm_base.svh'.
Parsing included file '/app/synopsys/installers/vcs/W-2024.09//etc/uvm-1.2/base/uvm_printer.svh'.
Back to file '/app/synopsys/installers/vcs/W-2024.09//etc/uvm-1.2/base/uvm_base.svh'.
Parsing included file '/app/synopsys/installers/vcs/W-2024.09//etc/uvm-1.2/base/uvm_comparer.svh'.
Back to file '/app/synopsys/installers/vcs/W-2024.09//etc/uvm-1.2/base/uvm_base.svh'.
Parsing included file '/app/synopsys/installers/vcs/W-2024.09//etc/uvm-1.2/base/uvm_packer.svh'.
Back to file '/app/synopsys/installers/vcs/W-2024.09//etc/uvm-1.2/base/uvm_base.svh'.
Parsing included file '/app/synopsys/installers/vcs/W-2024.09//etc/uvm-1.2/base/uvm_links.svh'.
Back to file '/app/synopsys/installers/vcs/W-2024.09//etc/uvm-1.2/base/uvm_base.svh'.
Parsing included file '/app/synopsys/installers/vcs/W-2024.09//etc/uvm-1.2/base/uvm_tr_database.svh'.
Back to file '/app/synopsys/installers/vcs/W-2024.09//etc/uvm-1.2/base/uvm_base.svh'.
Parsing included file '/app/synopsys/installers/vcs/W-2024.09//etc/uvm-1.2/base/uvm_tr_stream.svh'.
Back to file '/app/synopsys/installers/vcs/W-2024.09//etc/uvm-1.2/base/uvm_base.svh'.
Parsing included file '/app/synopsys/installers/vcs/W-2024.09//etc/uvm-1.2/base/uvm_recorder.svh'.
Back to file '/app/synopsys/installers/vcs/W-2024.09//etc/uvm-1.2/base/uvm_base.svh'.
Parsing included file '/app/synopsys/installers/vcs/W-2024.09//etc/uvm-1.2/base/uvm_event_callback.svh'.
Back to file '/app/synopsys/installers/vcs/W-2024.09//etc/uvm-1.2/base/uvm_base.svh'.
Parsing included file '/app/synopsys/installers/vcs/W-2024.09//etc/uvm-1.2/base/uvm_event.svh'.
Back to file '/app/synopsys/installers/vcs/W-2024.09//etc/uvm-1.2/base/uvm_base.svh'.
Parsing included file '/app/synopsys/installers/vcs/W-2024.09//etc/uvm-1.2/base/uvm_barrier.svh'.
Back to file '/app/synopsys/installers/vcs/W-2024.09//etc/uvm-1.2/base/uvm_base.svh'.
Parsing included file '/app/synopsys/installers/vcs/W-2024.09//etc/uvm-1.2/base/uvm_callback.svh'.
Parsing included file '/app/synopsys/installers/vcs/W-2024.09//etc/uvm-1.2/uvm_macros.svh'.
Back to file '/app/synopsys/installers/vcs/W-2024.09//etc/uvm-1.2/base/uvm_callback.svh'.
Back to file '/app/synopsys/installers/vcs/W-2024.09//etc/uvm-1.2/base/uvm_base.svh'.
Parsing included file '/app/synopsys/installers/vcs/W-2024.09//etc/uvm-1.2/base/uvm_report_message.svh'.
Back to file '/app/synopsys/installers/vcs/W-2024.09//etc/uvm-1.2/base/uvm_base.svh'.
Parsing included file '/app/synopsys/installers/vcs/W-2024.09//etc/uvm-1.2/base/uvm_report_catcher.svh'.
Back to file '/app/synopsys/installers/vcs/W-2024.09//etc/uvm-1.2/base/uvm_base.svh'.
Parsing included file '/app/synopsys/installers/vcs/W-2024.09//etc/uvm-1.2/base/uvm_report_server.svh'.
Back to file '/app/synopsys/installers/vcs/W-2024.09//etc/uvm-1.2/base/uvm_base.svh'.
Parsing included file '/app/synopsys/installers/vcs/W-2024.09//etc/uvm-1.2/base/uvm_report_handler.svh'.
Back to file '/app/synopsys/installers/vcs/W-2024.09//etc/uvm-1.2/base/uvm_base.svh'.
Parsing included file '/app/synopsys/installers/vcs/W-2024.09//etc/uvm-1.2/base/uvm_report_object.svh'.
Back to file '/app/synopsys/installers/vcs/W-2024.09//etc/uvm-1.2/base/uvm_base.svh'.
Parsing included file '/app/synopsys/installers/vcs/W-2024.09//etc/uvm-1.2/base/uvm_transaction.svh'.
Back to file '/app/synopsys/installers/vcs/W-2024.09//etc/uvm-1.2/base/uvm_base.svh'.
Parsing included file '/app/synopsys/installers/vcs/W-2024.09//etc/uvm-1.2/base/uvm_phase.svh'.
Back to file '/app/synopsys/installers/vcs/W-2024.09//etc/uvm-1.2/base/uvm_base.svh'.
Parsing included file '/app/synopsys/installers/vcs/W-2024.09//etc/uvm-1.2/base/uvm_domain.svh'.
Back to file '/app/synopsys/installers/vcs/W-2024.09//etc/uvm-1.2/base/uvm_base.svh'.
Parsing included file '/app/synopsys/installers/vcs/W-2024.09//etc/uvm-1.2/base/uvm_bottomup_phase.svh'.
Back to file '/app/synopsys/installers/vcs/W-2024.09//etc/uvm-1.2/base/uvm_base.svh'.
Parsing included file '/app/synopsys/installers/vcs/W-2024.09//etc/uvm-1.2/base/uvm_topdown_phase.svh'.
Back to file '/app/synopsys/installers/vcs/W-2024.09//etc/uvm-1.2/base/uvm_base.svh'.
Parsing included file '/app/synopsys/installers/vcs/W-2024.09//etc/uvm-1.2/base/uvm_task_phase.svh'.
Back to file '/app/synopsys/installers/vcs/W-2024.09//etc/uvm-1.2/base/uvm_base.svh'.
Parsing included file '/app/synopsys/installers/vcs/W-2024.09//etc/uvm-1.2/base/uvm_common_phases.svh'.
Back to file '/app/synopsys/installers/vcs/W-2024.09//etc/uvm-1.2/base/uvm_base.svh'.
Parsing included file '/app/synopsys/installers/vcs/W-2024.09//etc/uvm-1.2/base/uvm_runtime_phases.svh'.
Back to file '/app/synopsys/installers/vcs/W-2024.09//etc/uvm-1.2/base/uvm_base.svh'.
Parsing included file '/app/synopsys/installers/vcs/W-2024.09//etc/uvm-1.2/base/uvm_component.svh'.
Parsing included file '/app/synopsys/installers/vcs/W-2024.09//etc/uvm-1.2/base/uvm_root.svh'.
Back to file '/app/synopsys/installers/vcs/W-2024.09//etc/uvm-1.2/base/uvm_component.svh'.
Back to file '/app/synopsys/installers/vcs/W-2024.09//etc/uvm-1.2/base/uvm_base.svh'.
Parsing included file '/app/synopsys/installers/vcs/W-2024.09//etc/uvm-1.2/base/uvm_objection.svh'.
Back to file '/app/synopsys/installers/vcs/W-2024.09//etc/uvm-1.2/base/uvm_base.svh'.
Parsing included file '/app/synopsys/installers/vcs/W-2024.09//etc/uvm-1.2/base/uvm_heartbeat.svh'.
Back to file '/app/synopsys/installers/vcs/W-2024.09//etc/uvm-1.2/base/uvm_base.svh'.
Parsing included file '/app/synopsys/installers/vcs/W-2024.09//etc/uvm-1.2/base/uvm_globals.svh'.
Back to file '/app/synopsys/installers/vcs/W-2024.09//etc/uvm-1.2/base/uvm_base.svh'.
Parsing included file '/app/synopsys/installers/vcs/W-2024.09//etc/uvm-1.2/base/uvm_cmdline_processor.svh'.
Back to file '/app/synopsys/installers/vcs/W-2024.09//etc/uvm-1.2/base/uvm_base.svh'.
Parsing included file '/app/synopsys/installers/vcs/W-2024.09//etc/uvm-1.2/base/uvm_traversal.svh'.
Back to file '/app/synopsys/installers/vcs/W-2024.09//etc/uvm-1.2/base/uvm_base.svh'.
Back to file '/app/synopsys/installers/vcs/W-2024.09//etc/uvm-1.2/uvm_pkg.sv'.
Parsing included file '/app/synopsys/installers/vcs/W-2024.09//etc/uvm-1.2/dap/uvm_dap.svh'.
Parsing included file '/app/synopsys/installers/vcs/W-2024.09//etc/uvm-1.2/dap/uvm_set_get_dap_base.svh'.
Back to file '/app/synopsys/installers/vcs/W-2024.09//etc/uvm-1.2/dap/uvm_dap.svh'.
Parsing included file '/app/synopsys/installers/vcs/W-2024.09//etc/uvm-1.2/dap/uvm_simple_lock_dap.svh'.
Back to file '/app/synopsys/installers/vcs/W-2024.09//etc/uvm-1.2/dap/uvm_dap.svh'.
Parsing included file '/app/synopsys/installers/vcs/W-2024.09//etc/uvm-1.2/dap/uvm_get_to_lock_dap.svh'.
Back to file '/app/synopsys/installers/vcs/W-2024.09//etc/uvm-1.2/dap/uvm_dap.svh'.
Parsing included file '/app/synopsys/installers/vcs/W-2024.09//etc/uvm-1.2/dap/uvm_set_before_get_dap.svh'.
Back to file '/app/synopsys/installers/vcs/W-2024.09//etc/uvm-1.2/dap/uvm_dap.svh'.
Back to file '/app/synopsys/installers/vcs/W-2024.09//etc/uvm-1.2/uvm_pkg.sv'.
Parsing included file '/app/synopsys/installers/vcs/W-2024.09//etc/uvm-1.2/tlm1/uvm_tlm.svh'.
Parsing included file '/app/synopsys/installers/vcs/W-2024.09//etc/uvm-1.2/tlm1/uvm_tlm_ifs.svh'.
Back to file '/app/synopsys/installers/vcs/W-2024.09//etc/uvm-1.2/tlm1/uvm_tlm.svh'.
Parsing included file '/app/synopsys/installers/vcs/W-2024.09//etc/uvm-1.2/tlm1/uvm_sqr_ifs.svh'.
Back to file '/app/synopsys/installers/vcs/W-2024.09//etc/uvm-1.2/tlm1/uvm_tlm.svh'.
Parsing included file '/app/synopsys/installers/vcs/W-2024.09//etc/uvm-1.2/base/uvm_port_base.svh'.
Back to file '/app/synopsys/installers/vcs/W-2024.09//etc/uvm-1.2/tlm1/uvm_tlm.svh'.
Parsing included file '/app/synopsys/installers/vcs/W-2024.09//etc/uvm-1.2/tlm1/uvm_tlm_imps.svh'.
Back to file '/app/synopsys/installers/vcs/W-2024.09//etc/uvm-1.2/tlm1/uvm_tlm.svh'.
Parsing included file '/app/synopsys/installers/vcs/W-2024.09//etc/uvm-1.2/tlm1/uvm_imps.svh'.
Back to file '/app/synopsys/installers/vcs/W-2024.09//etc/uvm-1.2/tlm1/uvm_tlm.svh'.
Parsing included file '/app/synopsys/installers/vcs/W-2024.09//etc/uvm-1.2/tlm1/uvm_ports.svh'.
Back to file '/app/synopsys/installers/vcs/W-2024.09//etc/uvm-1.2/tlm1/uvm_tlm.svh'.
Parsing included file '/app/synopsys/installers/vcs/W-2024.09//etc/uvm-1.2/tlm1/uvm_exports.svh'.
Back to file '/app/synopsys/installers/vcs/W-2024.09//etc/uvm-1.2/tlm1/uvm_tlm.svh'.
Parsing included file '/app/synopsys/installers/vcs/W-2024.09//etc/uvm-1.2/tlm1/uvm_analysis_port.svh'.
Back to file '/app/synopsys/installers/vcs/W-2024.09//etc/uvm-1.2/tlm1/uvm_tlm.svh'.
Parsing included file '/app/synopsys/installers/vcs/W-2024.09//etc/uvm-1.2/tlm1/uvm_tlm_fifo_base.svh'.
Back to file '/app/synopsys/installers/vcs/W-2024.09//etc/uvm-1.2/tlm1/uvm_tlm.svh'.
Parsing included file '/app/synopsys/installers/vcs/W-2024.09//etc/uvm-1.2/tlm1/uvm_tlm_fifos.svh'.
Back to file '/app/synopsys/installers/vcs/W-2024.09//etc/uvm-1.2/tlm1/uvm_tlm.svh'.
Parsing included file '/app/synopsys/installers/vcs/W-2024.09//etc/uvm-1.2/tlm1/uvm_tlm_req_rsp.svh'.
Back to file '/app/synopsys/installers/vcs/W-2024.09//etc/uvm-1.2/tlm1/uvm_tlm.svh'.
Parsing included file '/app/synopsys/installers/vcs/W-2024.09//etc/uvm-1.2/tlm1/uvm_sqr_connections.svh'.
Back to file '/app/synopsys/installers/vcs/W-2024.09//etc/uvm-1.2/tlm1/uvm_tlm.svh'.
Back to file '/app/synopsys/installers/vcs/W-2024.09//etc/uvm-1.2/uvm_pkg.sv'.
Parsing included file '/app/synopsys/installers/vcs/W-2024.09//etc/uvm-1.2/comps/uvm_comps.svh'.
Parsing included file '/app/synopsys/installers/vcs/W-2024.09//etc/uvm-1.2/comps/uvm_pair.svh'.
Back to file '/app/synopsys/installers/vcs/W-2024.09//etc/uvm-1.2/comps/uvm_comps.svh'.
Parsing included file '/app/synopsys/installers/vcs/W-2024.09//etc/uvm-1.2/comps/uvm_policies.svh'.
Back to file '/app/synopsys/installers/vcs/W-2024.09//etc/uvm-1.2/comps/uvm_comps.svh'.
Parsing included file '/app/synopsys/installers/vcs/W-2024.09//etc/uvm-1.2/comps/uvm_in_order_comparator.svh'.
Back to file '/app/synopsys/installers/vcs/W-2024.09//etc/uvm-1.2/comps/uvm_comps.svh'.
Parsing included file '/app/synopsys/installers/vcs/W-2024.09//etc/uvm-1.2/comps/uvm_algorithmic_comparator.svh'.
Back to file '/app/synopsys/installers/vcs/W-2024.09//etc/uvm-1.2/comps/uvm_comps.svh'.
Parsing included file '/app/synopsys/installers/vcs/W-2024.09//etc/uvm-1.2/comps/uvm_random_stimulus.svh'.
Back to file '/app/synopsys/installers/vcs/W-2024.09//etc/uvm-1.2/comps/uvm_comps.svh'.
Parsing included file '/app/synopsys/installers/vcs/W-2024.09//etc/uvm-1.2/comps/uvm_subscriber.svh'.
Back to file '/app/synopsys/installers/vcs/W-2024.09//etc/uvm-1.2/comps/uvm_comps.svh'.
Parsing included file '/app/synopsys/installers/vcs/W-2024.09//etc/uvm-1.2/comps/uvm_monitor.svh'.
Back to file '/app/synopsys/installers/vcs/W-2024.09//etc/uvm-1.2/comps/uvm_comps.svh'.
Parsing included file '/app/synopsys/installers/vcs/W-2024.09//etc/uvm-1.2/comps/uvm_driver.svh'.
Back to file '/app/synopsys/installers/vcs/W-2024.09//etc/uvm-1.2/comps/uvm_comps.svh'.
Parsing included file '/app/synopsys/installers/vcs/W-2024.09//etc/uvm-1.2/comps/uvm_push_driver.svh'.
Back to file '/app/synopsys/installers/vcs/W-2024.09//etc/uvm-1.2/comps/uvm_comps.svh'.
Parsing included file '/app/synopsys/installers/vcs/W-2024.09//etc/uvm-1.2/comps/uvm_scoreboard.svh'.
Back to file '/app/synopsys/installers/vcs/W-2024.09//etc/uvm-1.2/comps/uvm_comps.svh'.
Parsing included file '/app/synopsys/installers/vcs/W-2024.09//etc/uvm-1.2/comps/uvm_agent.svh'.
Back to file '/app/synopsys/installers/vcs/W-2024.09//etc/uvm-1.2/comps/uvm_comps.svh'.
Parsing included file '/app/synopsys/installers/vcs/W-2024.09//etc/uvm-1.2/comps/uvm_env.svh'.
Back to file '/app/synopsys/installers/vcs/W-2024.09//etc/uvm-1.2/comps/uvm_comps.svh'.
Parsing included file '/app/synopsys/installers/vcs/W-2024.09//etc/uvm-1.2/comps/uvm_test.svh'.
Back to file '/app/synopsys/installers/vcs/W-2024.09//etc/uvm-1.2/comps/uvm_comps.svh'.
Back to file '/app/synopsys/installers/vcs/W-2024.09//etc/uvm-1.2/uvm_pkg.sv'.
Parsing included file '/app/synopsys/installers/vcs/W-2024.09//etc/uvm-1.2/seq/uvm_seq.svh'.
Parsing included file '/app/synopsys/installers/vcs/W-2024.09//etc/uvm-1.2/seq/uvm_sequence_item.svh'.
Back to file '/app/synopsys/installers/vcs/W-2024.09//etc/uvm-1.2/seq/uvm_seq.svh'.
Parsing included file '/app/synopsys/installers/vcs/W-2024.09//etc/uvm-1.2/seq/uvm_sequencer_base.svh'.
Back to file '/app/synopsys/installers/vcs/W-2024.09//etc/uvm-1.2/seq/uvm_seq.svh'.
Parsing included file '/app/synopsys/installers/vcs/W-2024.09//etc/uvm-1.2/seq/uvm_sequencer_analysis_fifo.svh'.
Back to file '/app/synopsys/installers/vcs/W-2024.09//etc/uvm-1.2/seq/uvm_seq.svh'.
Parsing included file '/app/synopsys/installers/vcs/W-2024.09//etc/uvm-1.2/seq/uvm_sequencer_param_base.svh'.
Back to file '/app/synopsys/installers/vcs/W-2024.09//etc/uvm-1.2/seq/uvm_seq.svh'.
Parsing included file '/app/synopsys/installers/vcs/W-2024.09//etc/uvm-1.2/seq/uvm_sequencer.svh'.
Back to file '/app/synopsys/installers/vcs/W-2024.09//etc/uvm-1.2/seq/uvm_seq.svh'.
Parsing included file '/app/synopsys/installers/vcs/W-2024.09//etc/uvm-1.2/seq/uvm_push_sequencer.svh'.
Back to file '/app/synopsys/installers/vcs/W-2024.09//etc/uvm-1.2/seq/uvm_seq.svh'.
Parsing included file '/app/synopsys/installers/vcs/W-2024.09//etc/uvm-1.2/seq/uvm_sequence_base.svh'.
Back to file '/app/synopsys/installers/vcs/W-2024.09//etc/uvm-1.2/seq/uvm_seq.svh'.
Parsing included file '/app/synopsys/installers/vcs/W-2024.09//etc/uvm-1.2/seq/uvm_sequence.svh'.
Back to file '/app/synopsys/installers/vcs/W-2024.09//etc/uvm-1.2/seq/uvm_seq.svh'.
Parsing included file '/app/synopsys/installers/vcs/W-2024.09//etc/uvm-1.2/seq/uvm_sequence_library.svh'.
Back to file '/app/synopsys/installers/vcs/W-2024.09//etc/uvm-1.2/seq/uvm_seq.svh'.
Parsing included file '/app/synopsys/installers/vcs/W-2024.09//etc/uvm-1.2/seq/uvm_sequence_builtin.svh'.
Back to file '/app/synopsys/installers/vcs/W-2024.09//etc/uvm-1.2/seq/uvm_seq.svh'.
Back to file '/app/synopsys/installers/vcs/W-2024.09//etc/uvm-1.2/uvm_pkg.sv'.
Parsing included file '/app/synopsys/installers/vcs/W-2024.09//etc/uvm-1.2/tlm2/uvm_tlm2.svh'.
Parsing included file '/app/synopsys/installers/vcs/W-2024.09//etc/uvm-1.2/tlm2/uvm_tlm2_defines.svh'.
Back to file '/app/synopsys/installers/vcs/W-2024.09//etc/uvm-1.2/tlm2/uvm_tlm2.svh'.
Parsing included file '/app/synopsys/installers/vcs/W-2024.09//etc/uvm-1.2/tlm2/uvm_tlm2_time.svh'.
Back to file '/app/synopsys/installers/vcs/W-2024.09//etc/uvm-1.2/tlm2/uvm_tlm2.svh'.
Parsing included file '/app/synopsys/installers/vcs/W-2024.09//etc/uvm-1.2/tlm2/uvm_tlm2_generic_payload.svh'.
Back to file '/app/synopsys/installers/vcs/W-2024.09//etc/uvm-1.2/tlm2/uvm_tlm2.svh'.
Parsing included file '/app/synopsys/installers/vcs/W-2024.09//etc/uvm-1.2/tlm2/uvm_tlm2_ifs.svh'.
Back to file '/app/synopsys/installers/vcs/W-2024.09//etc/uvm-1.2/tlm2/uvm_tlm2.svh'.
Parsing included file '/app/synopsys/installers/vcs/W-2024.09//etc/uvm-1.2/tlm2/uvm_tlm2_imps.svh'.
Back to file '/app/synopsys/installers/vcs/W-2024.09//etc/uvm-1.2/tlm2/uvm_tlm2.svh'.
Parsing included file '/app/synopsys/installers/vcs/W-2024.09//etc/uvm-1.2/tlm2/uvm_tlm2_ports.svh'.
Back to file '/app/synopsys/installers/vcs/W-2024.09//etc/uvm-1.2/tlm2/uvm_tlm2.svh'.
Parsing included file '/app/synopsys/installers/vcs/W-2024.09//etc/uvm-1.2/tlm2/uvm_tlm2_exports.svh'.
Back to file '/app/synopsys/installers/vcs/W-2024.09//etc/uvm-1.2/tlm2/uvm_tlm2.svh'.
Parsing included file '/app/synopsys/installers/vcs/W-2024.09//etc/uvm-1.2/tlm2/uvm_tlm2_sockets_base.svh'.
Back to file '/app/synopsys/installers/vcs/W-2024.09//etc/uvm-1.2/tlm2/uvm_tlm2.svh'.
Parsing included file '/app/synopsys/installers/vcs/W-2024.09//etc/uvm-1.2/tlm2/uvm_tlm2_sockets.svh'.
Back to file '/app/synopsys/installers/vcs/W-2024.09//etc/uvm-1.2/tlm2/uvm_tlm2.svh'.
Back to file '/app/synopsys/installers/vcs/W-2024.09//etc/uvm-1.2/uvm_pkg.sv'.
Parsing included file '/app/synopsys/installers/vcs/W-2024.09//etc/uvm-1.2/reg/uvm_reg_model.svh'.
Parsing included file '/app/synopsys/installers/vcs/W-2024.09//etc/uvm-1.2/reg/uvm_reg_item.svh'.
Back to file '/app/synopsys/installers/vcs/W-2024.09//etc/uvm-1.2/reg/uvm_reg_model.svh'.
Parsing included file '/app/synopsys/installers/vcs/W-2024.09//etc/uvm-1.2/reg/uvm_reg_adapter.svh'.
Back to file '/app/synopsys/installers/vcs/W-2024.09//etc/uvm-1.2/reg/uvm_reg_model.svh'.
Parsing included file '/app/synopsys/installers/vcs/W-2024.09//etc/uvm-1.2/reg/uvm_reg_predictor.svh'.
Back to file '/app/synopsys/installers/vcs/W-2024.09//etc/uvm-1.2/reg/uvm_reg_model.svh'.
Parsing included file '/app/synopsys/installers/vcs/W-2024.09//etc/uvm-1.2/reg/uvm_reg_sequence.svh'.
Back to file '/app/synopsys/installers/vcs/W-2024.09//etc/uvm-1.2/reg/uvm_reg_model.svh'.
Parsing included file '/app/synopsys/installers/vcs/W-2024.09//etc/uvm-1.2/reg/uvm_reg_cbs.svh'.
Back to file '/app/synopsys/installers/vcs/W-2024.09//etc/uvm-1.2/reg/uvm_reg_model.svh'.
Parsing included file '/app/synopsys/installers/vcs/W-2024.09//etc/uvm-1.2/reg/uvm_reg_backdoor.svh'.
Back to file '/app/synopsys/installers/vcs/W-2024.09//etc/uvm-1.2/reg/uvm_reg_model.svh'.
Parsing included file '/app/synopsys/installers/vcs/W-2024.09//etc/uvm-1.2/reg/uvm_reg_field.svh'.
Back to file '/app/synopsys/installers/vcs/W-2024.09//etc/uvm-1.2/reg/uvm_reg_model.svh'.
Parsing included file '/app/synopsys/installers/vcs/W-2024.09//etc/uvm-1.2/reg/uvm_vreg_field.svh'.
Back to file '/app/synopsys/installers/vcs/W-2024.09//etc/uvm-1.2/reg/uvm_reg_model.svh'.
Parsing included file '/app/synopsys/installers/vcs/W-2024.09//etc/uvm-1.2/reg/uvm_reg.svh'.
Back to file '/app/synopsys/installers/vcs/W-2024.09//etc/uvm-1.2/reg/uvm_reg_model.svh'.
Parsing included file '/app/synopsys/installers/vcs/W-2024.09//etc/uvm-1.2/reg/uvm_reg_indirect.svh'.
Back to file '/app/synopsys/installers/vcs/W-2024.09//etc/uvm-1.2/reg/uvm_reg_model.svh'.
Parsing included file '/app/synopsys/installers/vcs/W-2024.09//etc/uvm-1.2/reg/uvm_reg_fifo.svh'.
Back to file '/app/synopsys/installers/vcs/W-2024.09//etc/uvm-1.2/reg/uvm_reg_model.svh'.
Parsing included file '/app/synopsys/installers/vcs/W-2024.09//etc/uvm-1.2/reg/uvm_reg_file.svh'.
Back to file '/app/synopsys/installers/vcs/W-2024.09//etc/uvm-1.2/reg/uvm_reg_model.svh'.
Parsing included file '/app/synopsys/installers/vcs/W-2024.09//etc/uvm-1.2/reg/uvm_mem_mam.svh'.
Back to file '/app/synopsys/installers/vcs/W-2024.09//etc/uvm-1.2/reg/uvm_reg_model.svh'.
Parsing included file '/app/synopsys/installers/vcs/W-2024.09//etc/uvm-1.2/reg/uvm_vreg.svh'.
Back to file '/app/synopsys/installers/vcs/W-2024.09//etc/uvm-1.2/reg/uvm_reg_model.svh'.
Parsing included file '/app/synopsys/installers/vcs/W-2024.09//etc/uvm-1.2/reg/uvm_mem.svh'.
Back to file '/app/synopsys/installers/vcs/W-2024.09//etc/uvm-1.2/reg/uvm_reg_model.svh'.
Parsing included file '/app/synopsys/installers/vcs/W-2024.09//etc/uvm-1.2/reg/uvm_reg_map.svh'.
Back to file '/app/synopsys/installers/vcs/W-2024.09//etc/uvm-1.2/reg/uvm_reg_model.svh'.
Parsing included file '/app/synopsys/installers/vcs/W-2024.09//etc/uvm-1.2/reg/uvm_reg_block.svh'.
Back to file '/app/synopsys/installers/vcs/W-2024.09//etc/uvm-1.2/reg/uvm_reg_model.svh'.
Parsing included file '/app/synopsys/installers/vcs/W-2024.09//etc/uvm-1.2/reg/sequences/uvm_reg_hw_reset_seq.svh'.
Back to file '/app/synopsys/installers/vcs/W-2024.09//etc/uvm-1.2/reg/uvm_reg_model.svh'.
Parsing included file '/app/synopsys/installers/vcs/W-2024.09//etc/uvm-1.2/reg/sequences/uvm_reg_bit_bash_seq.svh'.
Back to file '/app/synopsys/installers/vcs/W-2024.09//etc/uvm-1.2/reg/uvm_reg_model.svh'.
Parsing included file '/app/synopsys/installers/vcs/W-2024.09//etc/uvm-1.2/reg/sequences/uvm_mem_walk_seq.svh'.
Back to file '/app/synopsys/installers/vcs/W-2024.09//etc/uvm-1.2/reg/uvm_reg_model.svh'.
Parsing included file '/app/synopsys/installers/vcs/W-2024.09//etc/uvm-1.2/reg/sequences/uvm_mem_access_seq.svh'.
Back to file '/app/synopsys/installers/vcs/W-2024.09//etc/uvm-1.2/reg/uvm_reg_model.svh'.
Parsing included file '/app/synopsys/installers/vcs/W-2024.09//etc/uvm-1.2/reg/sequences/uvm_reg_access_seq.svh'.
Back to file '/app/synopsys/installers/vcs/W-2024.09//etc/uvm-1.2/reg/uvm_reg_model.svh'.
Parsing included file '/app/synopsys/installers/vcs/W-2024.09//etc/uvm-1.2/reg/sequences/uvm_reg_mem_shared_access_seq.svh'.
Back to file '/app/synopsys/installers/vcs/W-2024.09//etc/uvm-1.2/reg/uvm_reg_model.svh'.
Parsing included file '/app/synopsys/installers/vcs/W-2024.09//etc/uvm-1.2/reg/sequences/uvm_reg_mem_built_in_seq.svh'.
Back to file '/app/synopsys/installers/vcs/W-2024.09//etc/uvm-1.2/reg/uvm_reg_model.svh'.
Parsing included file '/app/synopsys/installers/vcs/W-2024.09//etc/uvm-1.2/reg/sequences/uvm_reg_mem_hdl_paths_seq.svh'.
Back to file '/app/synopsys/installers/vcs/W-2024.09//etc/uvm-1.2/reg/uvm_reg_model.svh'.
Parsing included file '/app/synopsys/installers/vcs/W-2024.09//etc/uvm-1.2/reg/snps_uvm_reg_bank.svh'.
Back to file '/app/synopsys/installers/vcs/W-2024.09//etc/uvm-1.2/reg/uvm_reg_model.svh'.
Back to file '/app/synopsys/installers/vcs/W-2024.09//etc/uvm-1.2/uvm_pkg.sv'.
Parsing included file '/app/synopsys/installers/vcs/W-2024.09//etc/uvm-1.2/vcs/vcs_uvm_alt.sv'.
Back to file '/app/synopsys/installers/vcs/W-2024.09//etc/uvm-1.2/uvm_pkg.sv'.
Parsing design file '/app/synopsys/installers/vcs/W-2024.09//etc/uvm-1.2/vcs/uvm_custom_install_vcs_recorder.sv'
Parsing included file '/app/synopsys/installers/vcs/W-2024.09//etc/uvm-1.2/vcs/msglog.svh'.
Back to file '/app/synopsys/installers/vcs/W-2024.09//etc/uvm-1.2/vcs/uvm_custom_install_vcs_recorder.sv'.
Parsing included file '/app/synopsys/installers/vcs/W-2024.09//etc/uvm-1.2/vcs/uvm_msglog_report_server.sv'.
Back to file '/app/synopsys/installers/vcs/W-2024.09//etc/uvm-1.2/vcs/uvm_custom_install_vcs_recorder.sv'.
Parsing included file '/app/synopsys/installers/vcs/W-2024.09//etc/uvm-1.2/vcs/uvm_vcs_recorder.svh'.
Parsing included file '/app/synopsys/installers/vcs/W-2024.09//etc/uvm-1.2/vcs/uvm_vcs_tr_database.svh'.
Parsing included file '/app/synopsys/installers/vcs/W-2024.09//etc/uvm-1.2/vcs/uvm_vcs_tr_stream.svh'.
Back to file '/app/synopsys/installers/vcs/W-2024.09//etc/uvm-1.2/vcs/uvm_vcs_tr_database.svh'.
Back to file '/app/synopsys/installers/vcs/W-2024.09//etc/uvm-1.2/vcs/uvm_vcs_recorder.svh'.
Back to file '/app/synopsys/installers/vcs/W-2024.09//etc/uvm-1.2/vcs/uvm_custom_install_vcs_recorder.sv'.
Parsing included file '/app/synopsys/installers/vcs/W-2024.09//etc/uvm-1.2/vcs/uvm_vcs_record_interface.sv'.
Parsing included file '/app/synopsys/installers/vcs/W-2024.09//etc/uvm-1.2/macros/uvm_global_defines.svh'.
Back to file '/app/synopsys/installers/vcs/W-2024.09//etc/uvm-1.2/vcs/uvm_vcs_record_interface.sv'.
Back to file '/app/synopsys/installers/vcs/W-2024.09//etc/uvm-1.2/vcs/uvm_custom_install_vcs_recorder.sv'.
Parsing design file '/app/synopsys/installers/vcs/W-2024.09//etc/uvm-1.2/verdi/uvm_custom_install_verdi_recorder.sv'
Parsing included file '/app/synopsys/installers/vcs/W-2024.09//etc/uvm-1.2/uvm_macros.svh'.
Back to file '/app/synopsys/installers/vcs/W-2024.09//etc/uvm-1.2/verdi/uvm_custom_install_verdi_recorder.sv'.
Parsing included file '/app/synopsys/installers/vcs/W-2024.09//etc/uvm-1.2/verdi/uvm_verdi_recorder.svh'.
Parsing included file '/app/synopsys/installers/vcs/W-2024.09//etc/uvm-1.2/verdi/uvm_verdi_pli_base.svh'.
Back to file '/app/synopsys/installers/vcs/W-2024.09//etc/uvm-1.2/verdi/uvm_verdi_recorder.svh'.
Parsing included file '/app/synopsys/installers/vcs/W-2024.09//etc/uvm-1.2/verdi/uvm_verdi_tr_database.svh'.
Parsing included file '/app/synopsys/installers/vcs/W-2024.09//etc/uvm-1.2/verdi/uvm_verdi_tr_stream.svh'.
Back to file '/app/synopsys/installers/vcs/W-2024.09//etc/uvm-1.2/verdi/uvm_verdi_tr_database.svh'.
Back to file '/app/synopsys/installers/vcs/W-2024.09//etc/uvm-1.2/verdi/uvm_verdi_recorder.svh'.
Back to file '/app/synopsys/installers/vcs/W-2024.09//etc/uvm-1.2/verdi/uvm_custom_install_verdi_recorder.sv'.
Parsing included file '/app/synopsys/installers/vcs/W-2024.09//etc/uvm-1.2/verdi/uvm_verdi_reg_map_recording.sv'.
Back to file '/app/synopsys/installers/vcs/W-2024.09//etc/uvm-1.2/verdi/uvm_custom_install_verdi_recorder.sv'.
Parsing included file '/app/synopsys/installers/vcs/W-2024.09//etc/uvm-1.2/verdi/uvm_verdi_message_catcher.svh'.
Parsing included file '/app/synopsys/installers/vcs/W-2024.09//etc/uvm-1.2/verdi/uvm_verdi_pli_base.svh'.
Back to file '/app/synopsys/installers/vcs/W-2024.09//etc/uvm-1.2/verdi/uvm_verdi_message_catcher.svh'.
Back to file '/app/synopsys/installers/vcs/W-2024.09//etc/uvm-1.2/verdi/uvm_custom_install_verdi_recorder.sv'.
Parsing included file '/app/synopsys/installers/vcs/W-2024.09//etc/uvm-1.2/verdi/uvm_verdi_factory.svh'.
Back to file '/app/synopsys/installers/vcs/W-2024.09//etc/uvm-1.2/verdi/uvm_custom_install_verdi_recorder.sv'.
Parsing included file '/app/synopsys/installers/vcs/W-2024.09//etc/uvm-1.2/verdi/./dpi/uvm_verdi_dpi.svh'.
Back to file '/app/synopsys/installers/vcs/W-2024.09//etc/uvm-1.2/verdi/uvm_custom_install_verdi_recorder.sv'.
Parsing included file '/app/synopsys/installers/vcs/W-2024.09//etc/uvm-1.2/verdi/uvm_verdi_reg_recording.sv'.
Back to file '/app/synopsys/installers/vcs/W-2024.09//etc/uvm-1.2/verdi/uvm_custom_install_verdi_recorder.sv'.
Parsing included file '/app/synopsys/installers/verdi/X-2025.06/share/PLI/VCS/include/verdi_trans_recorder_dpi.svh'.
Back to file '/app/synopsys/installers/vcs/W-2024.09//etc/uvm-1.2/verdi/uvm_custom_install_verdi_recorder.sv'.
Parsing included file '/app/synopsys/installers/vcs/W-2024.09//etc/uvm-1.2/verdi/uvm_verdi_pli.svh'.
Back to file '/app/synopsys/installers/vcs/W-2024.09//etc/uvm-1.2/verdi/uvm_custom_install_verdi_recorder.sv'.
Parsing design file '/app/synopsys/installers/vcs/W-2024.09//etc/uvm-1.2/verdi/uvm_custom_install_verdi_recorder.sv'
Parsing design file 'apb_top.sv'
Parsing included file '/app/synopsys/installers/vcs/W-2024.09//etc/uvm-1.2/uvm_macros.svh'.
Back to file 'apb_top.sv'.
Parsing included file 'apb_interface.sv'.
Back to file 'apb_top.sv'.
Parsing included file 'apb_sequence_item.sv'.
Back to file 'apb_top.sv'.
Parsing included file 'apb_error_seq.sv'.
Back to file 'apb_top.sv'.
Parsing included file 'apb_read_seq.sv'.
Back to file 'apb_top.sv'.
Parsing included file 'apb_write_seq.sv'.
Back to file 'apb_top.sv'.
Parsing included file 'apb_rw_seq.sv'.
Back to file 'apb_top.sv'.
Parsing included file 'apb_con_psel_seq.sv'.
Back to file 'apb_top.sv'.
Parsing included file 'apb_sequencer.sv'.
Back to file 'apb_top.sv'.
Parsing included file 'apb_driver.sv'.
Back to file 'apb_top.sv'.
Parsing included file 'apb_active_monitor.sv'.
Back to file 'apb_top.sv'.
Parsing included file 'apb_passive_monitor.sv'.
Back to file 'apb_top.sv'.
Parsing included file 'apb_active_agent.sv'.
Back to file 'apb_top.sv'.
Parsing included file 'apb_passive_agent.sv'.
Back to file 'apb_top.sv'.
Parsing included file 'apb_score_board.sv'.
Back to file 'apb_top.sv'.
Parsing included file 'apb_coverage.sv'.
Back to file 'apb_top.sv'.
Parsing included file 'apb_env.sv'.
Back to file 'apb_top.sv'.
Parsing included file 'apb_test.sv'.
Back to file 'apb_top.sv'.
Parsing included file 'apb_slave_design.sv'.
Back to file 'apb_top.sv'.
Top Level Modules:
       uvm_custom_install_recording
       uvm_custom_install_verdi_recording
       apb_top
No TimeScale specified
VCS Coverage Metrics Release W-2024.09_Full64 Copyright (c) 1991-2024 by Synopsys Inc.
Notice: Ports coerced to inout, use -notice for details
Starting vcs inline pass...
8 modules and 0 UDP read.
recompiling module uvm_custom_install_verdi_recording
	However, due to incremental compilation, only 1 module needs to be compiled. 
rm -f _cuarc*.so _csrc*.so pre_vcsobj_*.so share_vcsobj_*.so
if [ -x ../simv ]; then chmod a-x ../simv; fi
g++  -o ../simv      -rdynamic  -Wl,-rpath='$ORIGIN'/simv.daidir -Wl,-rpath=./simv.daidir \
-Wl,-rpath=/app/synopsys/installers/vcs/W-2024.09/linux64/lib -L/app/synopsys/installers/vcs/W-2024.09/linux64/lib \
-Wl,-rpath-link=./  /usr/lib64/libnuma.so.1 uvm_dpi.o uvm_verdi_dpi.o   objs/amcQw_d.o \
_3642131_archive_1.so _prev_archive_1.so   SIM_l.o      rmapats_mop.o rmapats.o rmar.o \
rmar_nd.o  rmar_llvm_0_1.o rmar_llvm_0_0.o            -lvirsim -lerrorinf -lsnpsmalloc \
-lvfs    -lvcsnew -lsimprofile -lreader_common /app/synopsys/installers/vcs/W-2024.09/linux64/lib/libBA.a \
-luclinative /app/synopsys/installers/vcs/W-2024.09/linux64/lib/vcs_tls.o   -Wl,-whole-archive \
-lvcsucli    -Wl,-no-whole-archive       ./../simv.daidir/vc_hdrs.o  _vcs_pli_stub_.o \
/app/synopsys/installers/vcs/W-2024.09/linux64/lib/vcs_save_restore_new.o /app/synopsys/installers/verdi/X-2025.06/share/PLI/VCS/LINUX64/pli.a \
-ldl  -lc -lm -lpthread -ldl 
../simv up to date
Command: /home/dvft1103/dvft11/uvm/apb/./simv -a debug.log +continuous_psel=1 -cm_runsilent -cm line+tgl+cond+fsm+assert
Chronologic VCS simulator copyright 1991-2024
Contains Synopsys proprietary information.
Compiler version W-2024.09_Full64; Runtime version W-2024.09_Full64;  May 13 15:36 2026
UVM_INFO /app/synopsys/installers/vcs/W-2024.09//etc/uvm-1.2/base/uvm_root.svh(402) @ 0: reporter [UVM/RELNOTES] 
----------------------------------------------------------------
UVM-1.2.Synopsys
(C) 2007-2014 Mentor Graphics Corporation
(C) 2007-2014 Cadence Design Systems, Inc.
(C) 2006-2014 Synopsys, Inc.
(C) 2011-2013 Cypress Semiconductor Corp.
(C) 2013-2014 NVIDIA Corporation
----------------------------------------------------------------

  ***********       IMPORTANT RELEASE NOTES         ************

  You are using a version of the UVM library that has been compiled
  with `UVM_NO_DEPRECATED undefined.
  See http://www.eda.org/svdb/view.php?id=3313 for more details.

  You are using a version of the UVM library that has been compiled
  with `UVM_OBJECT_DO_NOT_NEED_CONSTRUCTOR undefined.
  See http://www.eda.org/svdb/view.php?id=3770 for more details.

      (Specify +UVM_NO_RELNOTES to turn off this notice)

UVM_INFO @ 0: reporter [RNTST] Running test apb_test...
UVM_INFO apb_passive_agent.sv(17) @ 0: uvm_test_top.env_h.pas_agent_h [[PASSIVE_AGNET]] memory created for [PAS_MON]
"apb_interface.sv", 60: apb_top.intf_h.preset_check: started at 5s failed at 5s
	Offending '((!psel) && (!penable))'
UVM_INFO apb_driver.sv(34) @ 5: uvm_test_top.env_h.act_agent_h.drv_h [DRV] Entered to RESET LOGIC
UVM_INFO apb_error_seq.sv(30) @ 25: uvm_test_top.env_h.act_agent_h.seqr_h@@error_h [apb_error_seq] Dispalying From apb_error_seq=-----------------------------------------------------------------------------------------------------
Name                           Type               Size  Value                                        
-----------------------------------------------------------------------------------------------------
seq_h                          apb_sequence_item  -     @718                                         
  psel                         integral           1     'h0                                          
  continuous_psel              integral           1     'h0                                          
  penable                      integral           1     'h0                                          
  pready                       integral           1     'h0                                          
  paddr                        integral           32    'hffffffff                                   
  pwrite                       integral           1     'h0                                          
  prdata                       integral           32    'h0                                          
  pwdata                       integral           32    'h8b334277                                   
  pslverr                      integral           1     'h0                                          
  apb_state                    apb_state_e        2     ""                                           
  begin_time                   time               64    25                                           
  depth                        int                32    'd2                                          
  parent sequence (name)       string             7     error_h                                      
  parent sequence (full name)  string             45    uvm_test_top.env_h.act_agent_h.seqr_h.error_h
  sequencer                    string             37    uvm_test_top.env_h.act_agent_h.seqr_h        
-----------------------------------------------------------------------------------------------------

UVM_INFO apb_driver.sv(48) @ 25: uvm_test_top.env_h.act_agent_h.drv_h [DRIVER] Displaying from apb_driver=-----------------------------------------------------------------------------------------------------
Name                           Type               Size  Value                                        
-----------------------------------------------------------------------------------------------------
seq_h                          apb_sequence_item  -     @718                                         
  psel                         integral           1     'h0                                          
  continuous_psel              integral           1     'h0                                          
  penable                      integral           1     'h0                                          
  pready                       integral           1     'h0                                          
  paddr                        integral           32    'hffffffff                                   
  pwrite                       integral           1     'h0                                          
  prdata                       integral           32    'h0                                          
  pwdata                       integral           32    'h8b334277                                   
  pslverr                      integral           1     'h0                                          
  apb_state                    apb_state_e        2     ""                                           
  begin_time                   time               64    25                                           
  depth                        int                32    'd2                                          
  parent sequence (name)       string             7     error_h                                      
  parent sequence (full name)  string             45    uvm_test_top.env_h.act_agent_h.seqr_h.error_h
  sequencer                    string             37    uvm_test_top.env_h.act_agent_h.seqr_h        
-----------------------------------------------------------------------------------------------------

UVM_INFO apb_driver.sv(61) @ 25: uvm_test_top.env_h.act_agent_h.drv_h [[DRV]] Entered SETUP State
UVM_INFO apb_score_board.sv(48) @ 30: uvm_test_top.env_h.sb_h [[SB]] [ACTIVE] paddr=0x0 pwrite=0 pwdata=0x0 prdata=0x0 pslverr=0
UVM_INFO apb_active_monitor.sv(44) @ 30: uvm_test_top.env_h.act_agent_h.act_mon_h [[ACTIVE_MON]] setup detected:::::- ------------------------------------------------------
Name               Type               Size  Value     
------------------------------------------------------
seq_h              apb_sequence_item  -     @759      
  psel             integral           1     'h1       
  continuous_psel  integral           1     'h0       
  penable          integral           1     'h0       
  pready           integral           1     'h1       
  paddr            integral           32    'hffffffff
  pwrite           integral           1     'h0       
  prdata           integral           32    'h0       
  pwdata           integral           32    'h8b334277
  pslverr          integral           1     'h0       
  apb_state        apb_state_e        2     IDLE      
------------------------------------------------------

UVM_INFO apb_score_board.sv(48) @ 30: uvm_test_top.env_h.sb_h [[SB]] [ACTIVE] paddr=0xffffffff pwrite=0 pwdata=0x8b334277 prdata=0x0 pslverr=0
UVM_INFO apb_score_board.sv(58) @ 30: uvm_test_top.env_h.sb_h [[SB]] [PASSIVE] paddr=0x0 pwrite=0 pwdata=0x0 prdata=0x0 pslverr=0
UVM_WARNING apb_score_board.sv(147) @ 30: uvm_test_top.env_h.sb_h [[SB]] [30] READ from uninitialised addr 0x0 --- no ref
UVM_INFO apb_passive_monitor.sv(44) @ 30: uvm_test_top.env_h.pas_agent_h.pas_mon_h [[PASSIVE_MON]] setup detected:::::- ------------------------------------------------------
Name               Type               Size  Value     
------------------------------------------------------
seq_h              apb_sequence_item  -     @785      
  psel             integral           1     'h1       
  continuous_psel  integral           1     'h0       
  penable          integral           1     'h0       
  pready           integral           1     'h1       
  paddr            integral           32    'hffffffff
  pwrite           integral           1     'h0       
  prdata           integral           32    'h0       
  pwdata           integral           32    'h8b334277
  pslverr          integral           1     'h0       
  apb_state        apb_state_e        2     IDLE      
------------------------------------------------------

UVM_INFO apb_score_board.sv(58) @ 30: uvm_test_top.env_h.sb_h [[SB]] [PASSIVE] paddr=0xffffffff pwrite=0 pwdata=0x8b334277 prdata=0x0 pslverr=0
UVM_WARNING apb_score_board.sv(147) @ 30: uvm_test_top.env_h.sb_h [[SB]] [30] READ from uninitialised addr 0xffffffff --- no ref
UVM_INFO apb_driver.sv(80) @ 35: uvm_test_top.env_h.act_agent_h.drv_h [[DRV]] Entered ACCESS State
UVM_INFO apb_score_board.sv(48) @ 40: uvm_test_top.env_h.sb_h [[SB]] [ACTIVE] paddr=0xffffffff pwrite=0 pwdata=0x8b334277 prdata=0x0 pslverr=0
UVM_INFO apb_score_board.sv(48) @ 40: uvm_test_top.env_h.sb_h [[SB]] [ACTIVE] paddr=0xffffffff pwrite=0 pwdata=0x8b334277 prdata=0x0 pslverr=1
UVM_INFO apb_active_monitor.sv(69) @ 40: uvm_test_top.env_h.act_agent_h.act_mon_h [[ACTIVE_MON]]  Transaction sent to scoreboard
UVM_INFO apb_score_board.sv(58) @ 40: uvm_test_top.env_h.sb_h [[SB]] [PASSIVE] paddr=0xffffffff pwrite=0 pwdata=0x8b334277 prdata=0x0 pslverr=0
UVM_WARNING apb_score_board.sv(147) @ 40: uvm_test_top.env_h.sb_h [[SB]] [40] READ from uninitialised addr 0xffffffff --- no ref
UVM_INFO apb_score_board.sv(58) @ 40: uvm_test_top.env_h.sb_h [[SB]] [PASSIVE] paddr=0xffffffff pwrite=0 pwdata=0x8b334277 prdata=0x0 pslverr=1
UVM_ERROR apb_score_board.sv(81) @ 40: uvm_test_top.env_h.sb_h [[SB]] [40] SLAVE ERROR:paddr=0xffffffff pwrite =0x0 act_pslverr=1 pas_pslverr=1
UVM_INFO apb_passive_monitor.sv(69) @ 40: uvm_test_top.env_h.pas_agent_h.pas_mon_h [[PASSIVE_MON]]  Transaction sent to scoreboard
UVM_INFO apb_driver.sv(108) @ 45: uvm_test_top.env_h.act_agent_h.drv_h [[DRV]] Pready occured at wait_count=0 4294967295 2335392375
UVM_INFO apb_driver.sv(112) @ 55: uvm_test_top.env_h.act_agent_h.drv_h [[DRV]] Transaction completed
UVM_INFO apb_driver.sv(121) @ 55: uvm_test_top.env_h.act_agent_h.drv_h [[abc1]] Transaction completed
UVM_INFO apb_driver.sv(122) @ 55: uvm_test_top.env_h.act_agent_h.drv_h [[abc1]]  0
UVM_INFO apb_error_seq.sv(30) @ 65: uvm_test_top.env_h.act_agent_h.seqr_h@@error_h [apb_error_seq] Dispalying From apb_error_seq=-----------------------------------------------------------------------------------------------------
Name                           Type               Size  Value                                        
-----------------------------------------------------------------------------------------------------
seq_h                          apb_sequence_item  -     @874                                         
  psel                         integral           1     'h0                                          
  continuous_psel              integral           1     'h0                                          
  penable                      integral           1     'h0                                          
  pready                       integral           1     'h0                                          
  paddr                        integral           32    'hffffffff                                   
  pwrite                       integral           1     'h0                                          
  prdata                       integral           32    'h0                                          
  pwdata                       integral           32    'h53c1183                                    
  pslverr                      integral           1     'h0                                          
  apb_state                    apb_state_e        2     ""                                           
  begin_time                   time               64    65                                           
  depth                        int                32    'd2                                          
  parent sequence (name)       string             7     error_h                                      
  parent sequence (full name)  string             45    uvm_test_top.env_h.act_agent_h.seqr_h.error_h
  sequencer                    string             37    uvm_test_top.env_h.act_agent_h.seqr_h        
-----------------------------------------------------------------------------------------------------

UVM_INFO apb_driver.sv(48) @ 65: uvm_test_top.env_h.act_agent_h.drv_h [DRIVER] Displaying from apb_driver=-----------------------------------------------------------------------------------------------------
Name                           Type               Size  Value                                        
-----------------------------------------------------------------------------------------------------
seq_h                          apb_sequence_item  -     @874                                         
  psel                         integral           1     'h0                                          
  continuous_psel              integral           1     'h0                                          
  penable                      integral           1     'h0                                          
  pready                       integral           1     'h0                                          
  paddr                        integral           32    'hffffffff                                   
  pwrite                       integral           1     'h0                                          
  prdata                       integral           32    'h0                                          
  pwdata                       integral           32    'h53c1183                                    
  pslverr                      integral           1     'h0                                          
  apb_state                    apb_state_e        2     ""                                           
  begin_time                   time               64    65                                           
  depth                        int                32    'd2                                          
  parent sequence (name)       string             7     error_h                                      
  parent sequence (full name)  string             45    uvm_test_top.env_h.act_agent_h.seqr_h.error_h
  sequencer                    string             37    uvm_test_top.env_h.act_agent_h.seqr_h        
-----------------------------------------------------------------------------------------------------

UVM_INFO apb_driver.sv(61) @ 65: uvm_test_top.env_h.act_agent_h.drv_h [[DRV]] Entered SETUP State
UVM_INFO apb_score_board.sv(48) @ 70: uvm_test_top.env_h.sb_h [[SB]] [ACTIVE] paddr=0x0 pwrite=0 pwdata=0x0 prdata=0x0 pslverr=0
UVM_INFO apb_active_monitor.sv(44) @ 70: uvm_test_top.env_h.act_agent_h.act_mon_h [[ACTIVE_MON]] setup detected:::::- ------------------------------------------------------
Name               Type               Size  Value     
------------------------------------------------------
seq_h              apb_sequence_item  -     @888      
  psel             integral           1     'h1       
  continuous_psel  integral           1     'h0       
  penable          integral           1     'h0       
  pready           integral           1     'h0       
  paddr            integral           32    'hffffffff
  pwrite           integral           1     'h0       
  prdata           integral           32    'h0       
  pwdata           integral           32    'h53c1183 
  pslverr          integral           1     'h0       
  apb_state        apb_state_e        2     IDLE      
------------------------------------------------------

UVM_INFO apb_score_board.sv(48) @ 70: uvm_test_top.env_h.sb_h [[SB]] [ACTIVE] paddr=0xffffffff pwrite=0 pwdata=0x53c1183 prdata=0x0 pslverr=0
UVM_INFO apb_score_board.sv(58) @ 70: uvm_test_top.env_h.sb_h [[SB]] [PASSIVE] paddr=0x0 pwrite=0 pwdata=0x0 prdata=0x0 pslverr=0
UVM_WARNING apb_score_board.sv(147) @ 70: uvm_test_top.env_h.sb_h [[SB]] [70] READ from uninitialised addr 0x0 --- no ref
UVM_INFO apb_passive_monitor.sv(44) @ 70: uvm_test_top.env_h.pas_agent_h.pas_mon_h [[PASSIVE_MON]] setup detected:::::- ------------------------------------------------------
Name               Type               Size  Value     
------------------------------------------------------
seq_h              apb_sequence_item  -     @914      
  psel             integral           1     'h1       
  continuous_psel  integral           1     'h0       
  penable          integral           1     'h0       
  pready           integral           1     'h0       
  paddr            integral           32    'hffffffff
  pwrite           integral           1     'h0       
  prdata           integral           32    'h0       
  pwdata           integral           32    'h53c1183 
  pslverr          integral           1     'h0       
  apb_state        apb_state_e        2     IDLE      
------------------------------------------------------

UVM_INFO apb_score_board.sv(58) @ 70: uvm_test_top.env_h.sb_h [[SB]] [PASSIVE] paddr=0xffffffff pwrite=0 pwdata=0x53c1183 prdata=0x0 pslverr=0
UVM_WARNING apb_score_board.sv(147) @ 70: uvm_test_top.env_h.sb_h [[SB]] [70] READ from uninitialised addr 0xffffffff --- no ref
UVM_INFO apb_driver.sv(80) @ 75: uvm_test_top.env_h.act_agent_h.drv_h [[DRV]] Entered ACCESS State
UVM_INFO apb_score_board.sv(48) @ 80: uvm_test_top.env_h.sb_h [[SB]] [ACTIVE] paddr=0xffffffff pwrite=0 pwdata=0x53c1183 prdata=0x0 pslverr=0
UVM_INFO apb_score_board.sv(58) @ 80: uvm_test_top.env_h.sb_h [[SB]] [PASSIVE] paddr=0xffffffff pwrite=0 pwdata=0x53c1183 prdata=0x0 pslverr=0
UVM_WARNING apb_score_board.sv(147) @ 80: uvm_test_top.env_h.sb_h [[SB]] [80] READ from uninitialised addr 0xffffffff --- no ref
"apb_interface.sv", 102: apb_top.intf_h.pready_waiting: started at 35s failed at 95s
	Offending 'pready'
UVM_INFO apb_driver.sv(108) @ 95: uvm_test_top.env_h.act_agent_h.drv_h [[DRV]] Pready occured at wait_count=1 4294967295 87822723
UVM_INFO apb_score_board.sv(48) @ 100: uvm_test_top.env_h.sb_h [[SB]] [ACTIVE] paddr=0xffffffff pwrite=0 pwdata=0x53c1183 prdata=0x0 pslverr=1
UVM_INFO apb_active_monitor.sv(69) @ 100: uvm_test_top.env_h.act_agent_h.act_mon_h [[ACTIVE_MON]]  Transaction sent to scoreboard
UVM_INFO apb_score_board.sv(58) @ 100: uvm_test_top.env_h.sb_h [[SB]] [PASSIVE] paddr=0xffffffff pwrite=0 pwdata=0x53c1183 prdata=0x0 pslverr=1
UVM_ERROR apb_score_board.sv(81) @ 100: uvm_test_top.env_h.sb_h [[SB]] [100] SLAVE ERROR:paddr=0xffffffff pwrite =0x0 act_pslverr=1 pas_pslverr=1
UVM_INFO apb_passive_monitor.sv(69) @ 100: uvm_test_top.env_h.pas_agent_h.pas_mon_h [[PASSIVE_MON]]  Transaction sent to scoreboard
UVM_INFO apb_driver.sv(112) @ 105: uvm_test_top.env_h.act_agent_h.drv_h [[DRV]] Transaction completed
UVM_INFO apb_driver.sv(121) @ 105: uvm_test_top.env_h.act_agent_h.drv_h [[abc1]] Transaction completed
UVM_INFO apb_driver.sv(122) @ 105: uvm_test_top.env_h.act_agent_h.drv_h [[abc1]]  0
UVM_INFO apb_driver.sv(34) @ 115: uvm_test_top.env_h.act_agent_h.drv_h [DRV] Entered to RESET LOGIC
UVM_INFO apb_error_seq.sv(30) @ 145: uvm_test_top.env_h.act_agent_h.seqr_h@@error_h [apb_error_seq] Dispalying From apb_error_seq=-----------------------------------------------------------------------------------------------------
Name                           Type               Size  Value                                        
-----------------------------------------------------------------------------------------------------
seq_h                          apb_sequence_item  -     @1002                                        
  psel                         integral           1     'h0                                          
  continuous_psel              integral           1     'h0                                          
  penable                      integral           1     'h0                                          
  pready                       integral           1     'h0                                          
  paddr                        integral           32    'hffffffff                                   
  pwrite                       integral           1     'h0                                          
  prdata                       integral           32    'h0                                          
  pwdata                       integral           32    'hcde7c59f                                   
  pslverr                      integral           1     'h0                                          
  apb_state                    apb_state_e        2     ""                                           
  begin_time                   time               64    145                                          
  depth                        int                32    'd2                                          
  parent sequence (name)       string             7     error_h                                      
  parent sequence (full name)  string             45    uvm_test_top.env_h.act_agent_h.seqr_h.error_h
  sequencer                    string             37    uvm_test_top.env_h.act_agent_h.seqr_h        
-----------------------------------------------------------------------------------------------------

UVM_INFO apb_driver.sv(48) @ 145: uvm_test_top.env_h.act_agent_h.drv_h [DRIVER] Displaying from apb_driver=-----------------------------------------------------------------------------------------------------
Name                           Type               Size  Value                                        
-----------------------------------------------------------------------------------------------------
seq_h                          apb_sequence_item  -     @1002                                        
  psel                         integral           1     'h0                                          
  continuous_psel              integral           1     'h0                                          
  penable                      integral           1     'h0                                          
  pready                       integral           1     'h0                                          
  paddr                        integral           32    'hffffffff                                   
  pwrite                       integral           1     'h0                                          
  prdata                       integral           32    'h0                                          
  pwdata                       integral           32    'hcde7c59f                                   
  pslverr                      integral           1     'h0                                          
  apb_state                    apb_state_e        2     ""                                           
  begin_time                   time               64    145                                          
  depth                        int                32    'd2                                          
  parent sequence (name)       string             7     error_h                                      
  parent sequence (full name)  string             45    uvm_test_top.env_h.act_agent_h.seqr_h.error_h
  sequencer                    string             37    uvm_test_top.env_h.act_agent_h.seqr_h        
-----------------------------------------------------------------------------------------------------

UVM_INFO apb_driver.sv(61) @ 145: uvm_test_top.env_h.act_agent_h.drv_h [[DRV]] Entered SETUP State
UVM_INFO apb_score_board.sv(48) @ 150: uvm_test_top.env_h.sb_h [[SB]] [ACTIVE] paddr=0x0 pwrite=0 pwdata=0x0 prdata=0x0 pslverr=0
UVM_INFO apb_active_monitor.sv(44) @ 150: uvm_test_top.env_h.act_agent_h.act_mon_h [[ACTIVE_MON]] setup detected:::::- ------------------------------------------------------
Name               Type               Size  Value     
------------------------------------------------------
seq_h              apb_sequence_item  -     @1018     
  psel             integral           1     'h1       
  continuous_psel  integral           1     'h0       
  penable          integral           1     'h0       
  pready           integral           1     'h1       
  paddr            integral           32    'hffffffff
  pwrite           integral           1     'h0       
  prdata           integral           32    'h0       
  pwdata           integral           32    'hcde7c59f
  pslverr          integral           1     'h0       
  apb_state        apb_state_e        2     IDLE      
------------------------------------------------------

UVM_INFO apb_score_board.sv(48) @ 150: uvm_test_top.env_h.sb_h [[SB]] [ACTIVE] paddr=0xffffffff pwrite=0 pwdata=0xcde7c59f prdata=0x0 pslverr=0
UVM_INFO apb_score_board.sv(58) @ 150: uvm_test_top.env_h.sb_h [[SB]] [PASSIVE] paddr=0x0 pwrite=0 pwdata=0x0 prdata=0x0 pslverr=0
UVM_WARNING apb_score_board.sv(147) @ 150: uvm_test_top.env_h.sb_h [[SB]] [150] READ from uninitialised addr 0x0 --- no ref
UVM_INFO apb_passive_monitor.sv(44) @ 150: uvm_test_top.env_h.pas_agent_h.pas_mon_h [[PASSIVE_MON]] setup detected:::::- ------------------------------------------------------
Name               Type               Size  Value     
------------------------------------------------------
seq_h              apb_sequence_item  -     @1044     
  psel             integral           1     'h1       
  continuous_psel  integral           1     'h0       
  penable          integral           1     'h0       
  pready           integral           1     'h1       
  paddr            integral           32    'hffffffff
  pwrite           integral           1     'h0       
  prdata           integral           32    'h0       
  pwdata           integral           32    'hcde7c59f
  pslverr          integral           1     'h0       
  apb_state        apb_state_e        2     IDLE      
------------------------------------------------------

UVM_INFO apb_score_board.sv(58) @ 150: uvm_test_top.env_h.sb_h [[SB]] [PASSIVE] paddr=0xffffffff pwrite=0 pwdata=0xcde7c59f prdata=0x0 pslverr=0
UVM_WARNING apb_score_board.sv(147) @ 150: uvm_test_top.env_h.sb_h [[SB]] [150] READ from uninitialised addr 0xffffffff --- no ref
UVM_INFO apb_driver.sv(80) @ 155: uvm_test_top.env_h.act_agent_h.drv_h [[DRV]] Entered ACCESS State
UVM_INFO apb_score_board.sv(48) @ 160: uvm_test_top.env_h.sb_h [[SB]] [ACTIVE] paddr=0xffffffff pwrite=0 pwdata=0xcde7c59f prdata=0x0 pslverr=0
UVM_INFO apb_score_board.sv(58) @ 160: uvm_test_top.env_h.sb_h [[SB]] [PASSIVE] paddr=0xffffffff pwrite=0 pwdata=0xcde7c59f prdata=0x0 pslverr=0
UVM_WARNING apb_score_board.sv(147) @ 160: uvm_test_top.env_h.sb_h [[SB]] [160] READ from uninitialised addr 0xffffffff --- no ref
UVM_INFO apb_driver.sv(108) @ 175: uvm_test_top.env_h.act_agent_h.drv_h [[DRV]] Pready occured at wait_count=1 4294967295 3454518687
UVM_INFO apb_score_board.sv(48) @ 180: uvm_test_top.env_h.sb_h [[SB]] [ACTIVE] paddr=0xffffffff pwrite=0 pwdata=0xcde7c59f prdata=0x0 pslverr=1
UVM_INFO apb_active_monitor.sv(69) @ 180: uvm_test_top.env_h.act_agent_h.act_mon_h [[ACTIVE_MON]]  Transaction sent to scoreboard
UVM_INFO apb_score_board.sv(58) @ 180: uvm_test_top.env_h.sb_h [[SB]] [PASSIVE] paddr=0xffffffff pwrite=0 pwdata=0xcde7c59f prdata=0x0 pslverr=1
UVM_ERROR apb_score_board.sv(81) @ 180: uvm_test_top.env_h.sb_h [[SB]] [180] SLAVE ERROR:paddr=0xffffffff pwrite =0x0 act_pslverr=1 pas_pslverr=1
UVM_INFO apb_passive_monitor.sv(69) @ 180: uvm_test_top.env_h.pas_agent_h.pas_mon_h [[PASSIVE_MON]]  Transaction sent to scoreboard
UVM_INFO apb_driver.sv(112) @ 185: uvm_test_top.env_h.act_agent_h.drv_h [[DRV]] Transaction completed
UVM_INFO apb_driver.sv(121) @ 185: uvm_test_top.env_h.act_agent_h.drv_h [[abc1]] Transaction completed
UVM_INFO apb_driver.sv(122) @ 185: uvm_test_top.env_h.act_agent_h.drv_h [[abc1]]  0
UVM_INFO apb_error_seq.sv(30) @ 195: uvm_test_top.env_h.act_agent_h.seqr_h@@error_h [apb_error_seq] Dispalying From apb_error_seq=-----------------------------------------------------------------------------------------------------
Name                           Type               Size  Value                                        
-----------------------------------------------------------------------------------------------------
seq_h                          apb_sequence_item  -     @1132                                        
  psel                         integral           1     'h0                                          
  continuous_psel              integral           1     'h0                                          
  penable                      integral           1     'h0                                          
  pready                       integral           1     'h0                                          
  paddr                        integral           32    'hffffffff                                   
  pwrite                       integral           1     'h0                                          
  prdata                       integral           32    'h0                                          
  pwdata                       integral           32    'hb4552366                                   
  pslverr                      integral           1     'h0                                          
  apb_state                    apb_state_e        2     ""                                           
  begin_time                   time               64    195                                          
  depth                        int                32    'd2                                          
  parent sequence (name)       string             7     error_h                                      
  parent sequence (full name)  string             45    uvm_test_top.env_h.act_agent_h.seqr_h.error_h
  sequencer                    string             37    uvm_test_top.env_h.act_agent_h.seqr_h        
-----------------------------------------------------------------------------------------------------

UVM_INFO apb_driver.sv(48) @ 195: uvm_test_top.env_h.act_agent_h.drv_h [DRIVER] Displaying from apb_driver=-----------------------------------------------------------------------------------------------------
Name                           Type               Size  Value                                        
-----------------------------------------------------------------------------------------------------
seq_h                          apb_sequence_item  -     @1132                                        
  psel                         integral           1     'h0                                          
  continuous_psel              integral           1     'h0                                          
  penable                      integral           1     'h0                                          
  pready                       integral           1     'h0                                          
  paddr                        integral           32    'hffffffff                                   
  pwrite                       integral           1     'h0                                          
  prdata                       integral           32    'h0                                          
  pwdata                       integral           32    'hb4552366                                   
  pslverr                      integral           1     'h0                                          
  apb_state                    apb_state_e        2     ""                                           
  begin_time                   time               64    195                                          
  depth                        int                32    'd2                                          
  parent sequence (name)       string             7     error_h                                      
  parent sequence (full name)  string             45    uvm_test_top.env_h.act_agent_h.seqr_h.error_h
  sequencer                    string             37    uvm_test_top.env_h.act_agent_h.seqr_h        
-----------------------------------------------------------------------------------------------------

UVM_INFO apb_driver.sv(61) @ 195: uvm_test_top.env_h.act_agent_h.drv_h [[DRV]] Entered SETUP State
UVM_INFO apb_score_board.sv(48) @ 200: uvm_test_top.env_h.sb_h [[SB]] [ACTIVE] paddr=0x0 pwrite=0 pwdata=0x0 prdata=0x0 pslverr=0
UVM_INFO apb_active_monitor.sv(44) @ 200: uvm_test_top.env_h.act_agent_h.act_mon_h [[ACTIVE_MON]] setup detected:::::- ------------------------------------------------------
Name               Type               Size  Value     
------------------------------------------------------
seq_h              apb_sequence_item  -     @1146     
  psel             integral           1     'h1       
  continuous_psel  integral           1     'h0       
  penable          integral           1     'h0       
  pready           integral           1     'h1       
  paddr            integral           32    'hffffffff
  pwrite           integral           1     'h0       
  prdata           integral           32    'h0       
  pwdata           integral           32    'hb4552366
  pslverr          integral           1     'h0       
  apb_state        apb_state_e        2     IDLE      
------------------------------------------------------

UVM_INFO apb_score_board.sv(48) @ 200: uvm_test_top.env_h.sb_h [[SB]] [ACTIVE] paddr=0xffffffff pwrite=0 pwdata=0xb4552366 prdata=0x0 pslverr=0
UVM_INFO apb_score_board.sv(58) @ 200: uvm_test_top.env_h.sb_h [[SB]] [PASSIVE] paddr=0x0 pwrite=0 pwdata=0x0 prdata=0x0 pslverr=0
UVM_WARNING apb_score_board.sv(147) @ 200: uvm_test_top.env_h.sb_h [[SB]] [200] READ from uninitialised addr 0x0 --- no ref
UVM_INFO apb_passive_monitor.sv(44) @ 200: uvm_test_top.env_h.pas_agent_h.pas_mon_h [[PASSIVE_MON]] setup detected:::::- ------------------------------------------------------
Name               Type               Size  Value     
------------------------------------------------------
seq_h              apb_sequence_item  -     @1172     
  psel             integral           1     'h1       
  continuous_psel  integral           1     'h0       
  penable          integral           1     'h0       
  pready           integral           1     'h1       
  paddr            integral           32    'hffffffff
  pwrite           integral           1     'h0       
  prdata           integral           32    'h0       
  pwdata           integral           32    'hb4552366
  pslverr          integral           1     'h0       
  apb_state        apb_state_e        2     IDLE      
------------------------------------------------------

UVM_INFO apb_score_board.sv(58) @ 200: uvm_test_top.env_h.sb_h [[SB]] [PASSIVE] paddr=0xffffffff pwrite=0 pwdata=0xb4552366 prdata=0x0 pslverr=0
UVM_WARNING apb_score_board.sv(147) @ 200: uvm_test_top.env_h.sb_h [[SB]] [200] READ from uninitialised addr 0xffffffff --- no ref
UVM_INFO apb_driver.sv(80) @ 205: uvm_test_top.env_h.act_agent_h.drv_h [[DRV]] Entered ACCESS State
UVM_INFO apb_score_board.sv(48) @ 210: uvm_test_top.env_h.sb_h [[SB]] [ACTIVE] paddr=0xffffffff pwrite=0 pwdata=0xb4552366 prdata=0x0 pslverr=0
UVM_INFO apb_score_board.sv(58) @ 210: uvm_test_top.env_h.sb_h [[SB]] [PASSIVE] paddr=0xffffffff pwrite=0 pwdata=0xb4552366 prdata=0x0 pslverr=0
UVM_WARNING apb_score_board.sv(147) @ 210: uvm_test_top.env_h.sb_h [[SB]] [210] READ from uninitialised addr 0xffffffff --- no ref
UVM_INFO apb_driver.sv(108) @ 215: uvm_test_top.env_h.act_agent_h.drv_h [[DRV]] Pready occured at wait_count=0 4294967295 3025478502
UVM_INFO apb_score_board.sv(48) @ 220: uvm_test_top.env_h.sb_h [[SB]] [ACTIVE] paddr=0xffffffff pwrite=0 pwdata=0xb4552366 prdata=0x0 pslverr=1
UVM_INFO apb_active_monitor.sv(69) @ 220: uvm_test_top.env_h.act_agent_h.act_mon_h [[ACTIVE_MON]]  Transaction sent to scoreboard
UVM_INFO apb_score_board.sv(58) @ 220: uvm_test_top.env_h.sb_h [[SB]] [PASSIVE] paddr=0xffffffff pwrite=0 pwdata=0xb4552366 prdata=0x0 pslverr=1
UVM_ERROR apb_score_board.sv(81) @ 220: uvm_test_top.env_h.sb_h [[SB]] [220] SLAVE ERROR:paddr=0xffffffff pwrite =0x0 act_pslverr=1 pas_pslverr=1
UVM_INFO apb_passive_monitor.sv(69) @ 220: uvm_test_top.env_h.pas_agent_h.pas_mon_h [[PASSIVE_MON]]  Transaction sent to scoreboard
UVM_INFO apb_driver.sv(112) @ 225: uvm_test_top.env_h.act_agent_h.drv_h [[DRV]] Transaction completed
UVM_INFO apb_driver.sv(121) @ 225: uvm_test_top.env_h.act_agent_h.drv_h [[abc1]] Transaction completed
UVM_INFO apb_driver.sv(122) @ 225: uvm_test_top.env_h.act_agent_h.drv_h [[abc1]]  0
UVM_INFO apb_error_seq.sv(30) @ 235: uvm_test_top.env_h.act_agent_h.seqr_h@@error_h [apb_error_seq] Dispalying From apb_error_seq=-----------------------------------------------------------------------------------------------------
Name                           Type               Size  Value                                        
-----------------------------------------------------------------------------------------------------
seq_h                          apb_sequence_item  -     @1260                                        
  psel                         integral           1     'h0                                          
  continuous_psel              integral           1     'h0                                          
  penable                      integral           1     'h0                                          
  pready                       integral           1     'h0                                          
  paddr                        integral           32    'hffffffff                                   
  pwrite                       integral           1     'h0                                          
  prdata                       integral           32    'h0                                          
  pwdata                       integral           32    'hf3bd5f28                                   
  pslverr                      integral           1     'h0                                          
  apb_state                    apb_state_e        2     ""                                           
  begin_time                   time               64    235                                          
  depth                        int                32    'd2                                          
  parent sequence (name)       string             7     error_h                                      
  parent sequence (full name)  string             45    uvm_test_top.env_h.act_agent_h.seqr_h.error_h
  sequencer                    string             37    uvm_test_top.env_h.act_agent_h.seqr_h        
-----------------------------------------------------------------------------------------------------

UVM_INFO apb_driver.sv(48) @ 235: uvm_test_top.env_h.act_agent_h.drv_h [DRIVER] Displaying from apb_driver=-----------------------------------------------------------------------------------------------------
Name                           Type               Size  Value                                        
-----------------------------------------------------------------------------------------------------
seq_h                          apb_sequence_item  -     @1260                                        
  psel                         integral           1     'h0                                          
  continuous_psel              integral           1     'h0                                          
  penable                      integral           1     'h0                                          
  pready                       integral           1     'h0                                          
  paddr                        integral           32    'hffffffff                                   
  pwrite                       integral           1     'h0                                          
  prdata                       integral           32    'h0                                          
  pwdata                       integral           32    'hf3bd5f28                                   
  pslverr                      integral           1     'h0                                          
  apb_state                    apb_state_e        2     ""                                           
  begin_time                   time               64    235                                          
  depth                        int                32    'd2                                          
  parent sequence (name)       string             7     error_h                                      
  parent sequence (full name)  string             45    uvm_test_top.env_h.act_agent_h.seqr_h.error_h
  sequencer                    string             37    uvm_test_top.env_h.act_agent_h.seqr_h        
-----------------------------------------------------------------------------------------------------

UVM_INFO apb_driver.sv(61) @ 235: uvm_test_top.env_h.act_agent_h.drv_h [[DRV]] Entered SETUP State
UVM_INFO apb_score_board.sv(48) @ 240: uvm_test_top.env_h.sb_h [[SB]] [ACTIVE] paddr=0x0 pwrite=0 pwdata=0x0 prdata=0x0 pslverr=0
UVM_INFO apb_active_monitor.sv(44) @ 240: uvm_test_top.env_h.act_agent_h.act_mon_h [[ACTIVE_MON]] setup detected:::::- ------------------------------------------------------
Name               Type               Size  Value     
------------------------------------------------------
seq_h              apb_sequence_item  -     @1274     
  psel             integral           1     'h1       
  continuous_psel  integral           1     'h0       
  penable          integral           1     'h0       
  pready           integral           1     'h1       
  paddr            integral           32    'hffffffff
  pwrite           integral           1     'h0       
  prdata           integral           32    'h0       
  pwdata           integral           32    'hf3bd5f28
  pslverr          integral           1     'h0       
  apb_state        apb_state_e        2     IDLE      
------------------------------------------------------

UVM_INFO apb_score_board.sv(48) @ 240: uvm_test_top.env_h.sb_h [[SB]] [ACTIVE] paddr=0xffffffff pwrite=0 pwdata=0xf3bd5f28 prdata=0x0 pslverr=0
UVM_INFO apb_score_board.sv(58) @ 240: uvm_test_top.env_h.sb_h [[SB]] [PASSIVE] paddr=0x0 pwrite=0 pwdata=0x0 prdata=0x0 pslverr=0
UVM_WARNING apb_score_board.sv(147) @ 240: uvm_test_top.env_h.sb_h [[SB]] [240] READ from uninitialised addr 0x0 --- no ref
UVM_INFO apb_passive_monitor.sv(44) @ 240: uvm_test_top.env_h.pas_agent_h.pas_mon_h [[PASSIVE_MON]] setup detected:::::- ------------------------------------------------------
Name               Type               Size  Value     
------------------------------------------------------
seq_h              apb_sequence_item  -     @1300     
  psel             integral           1     'h1       
  continuous_psel  integral           1     'h0       
  penable          integral           1     'h0       
  pready           integral           1     'h1       
  paddr            integral           32    'hffffffff
  pwrite           integral           1     'h0       
  prdata           integral           32    'h0       
  pwdata           integral           32    'hf3bd5f28
  pslverr          integral           1     'h0       
  apb_state        apb_state_e        2     IDLE      
------------------------------------------------------

UVM_INFO apb_score_board.sv(58) @ 240: uvm_test_top.env_h.sb_h [[SB]] [PASSIVE] paddr=0xffffffff pwrite=0 pwdata=0xf3bd5f28 prdata=0x0 pslverr=0
UVM_WARNING apb_score_board.sv(147) @ 240: uvm_test_top.env_h.sb_h [[SB]] [240] READ from uninitialised addr 0xffffffff --- no ref
UVM_INFO apb_driver.sv(80) @ 245: uvm_test_top.env_h.act_agent_h.drv_h [[DRV]] Entered ACCESS State
UVM_INFO apb_score_board.sv(48) @ 250: uvm_test_top.env_h.sb_h [[SB]] [ACTIVE] paddr=0xffffffff pwrite=0 pwdata=0xf3bd5f28 prdata=0x0 pslverr=0
UVM_INFO apb_score_board.sv(58) @ 250: uvm_test_top.env_h.sb_h [[SB]] [PASSIVE] paddr=0xffffffff pwrite=0 pwdata=0xf3bd5f28 prdata=0x0 pslverr=0
UVM_WARNING apb_score_board.sv(147) @ 250: uvm_test_top.env_h.sb_h [[SB]] [250] READ from uninitialised addr 0xffffffff --- no ref
UVM_INFO apb_driver.sv(108) @ 255: uvm_test_top.env_h.act_agent_h.drv_h [[DRV]] Pready occured at wait_count=0 4294967295 4089274152
UVM_INFO apb_score_board.sv(48) @ 260: uvm_test_top.env_h.sb_h [[SB]] [ACTIVE] paddr=0xffffffff pwrite=0 pwdata=0xf3bd5f28 prdata=0x0 pslverr=1
UVM_INFO apb_active_monitor.sv(69) @ 260: uvm_test_top.env_h.act_agent_h.act_mon_h [[ACTIVE_MON]]  Transaction sent to scoreboard
UVM_INFO apb_score_board.sv(58) @ 260: uvm_test_top.env_h.sb_h [[SB]] [PASSIVE] paddr=0xffffffff pwrite=0 pwdata=0xf3bd5f28 prdata=0x0 pslverr=1
UVM_ERROR apb_score_board.sv(81) @ 260: uvm_test_top.env_h.sb_h [[SB]] [260] SLAVE ERROR:paddr=0xffffffff pwrite =0x0 act_pslverr=1 pas_pslverr=1
UVM_INFO apb_passive_monitor.sv(69) @ 260: uvm_test_top.env_h.pas_agent_h.pas_mon_h [[PASSIVE_MON]]  Transaction sent to scoreboard
UVM_INFO apb_driver.sv(112) @ 265: uvm_test_top.env_h.act_agent_h.drv_h [[DRV]] Transaction completed
UVM_INFO apb_driver.sv(121) @ 265: uvm_test_top.env_h.act_agent_h.drv_h [[abc1]] Transaction completed
UVM_INFO apb_driver.sv(122) @ 265: uvm_test_top.env_h.act_agent_h.drv_h [[abc1]]  0
UVM_INFO apb_error_seq.sv(30) @ 275: uvm_test_top.env_h.act_agent_h.seqr_h@@error_h [apb_error_seq] Dispalying From apb_error_seq=-----------------------------------------------------------------------------------------------------
Name                           Type               Size  Value                                        
-----------------------------------------------------------------------------------------------------
seq_h                          apb_sequence_item  -     @1388                                        
  psel                         integral           1     'h0                                          
  continuous_psel              integral           1     'h0                                          
  penable                      integral           1     'h0                                          
  pready                       integral           1     'h0                                          
  paddr                        integral           32    'hffffffff                                   
  pwrite                       integral           1     'h0                                          
  prdata                       integral           32    'h0                                          
  pwdata                       integral           32    'hacaf27f8                                   
  pslverr                      integral           1     'h0                                          
  apb_state                    apb_state_e        2     ""                                           
  begin_time                   time               64    275                                          
  depth                        int                32    'd2                                          
  parent sequence (name)       string             7     error_h                                      
  parent sequence (full name)  string             45    uvm_test_top.env_h.act_agent_h.seqr_h.error_h
  sequencer                    string             37    uvm_test_top.env_h.act_agent_h.seqr_h        
-----------------------------------------------------------------------------------------------------

UVM_INFO apb_driver.sv(48) @ 275: uvm_test_top.env_h.act_agent_h.drv_h [DRIVER] Displaying from apb_driver=-----------------------------------------------------------------------------------------------------
Name                           Type               Size  Value                                        
-----------------------------------------------------------------------------------------------------
seq_h                          apb_sequence_item  -     @1388                                        
  psel                         integral           1     'h0                                          
  continuous_psel              integral           1     'h0                                          
  penable                      integral           1     'h0                                          
  pready                       integral           1     'h0                                          
  paddr                        integral           32    'hffffffff                                   
  pwrite                       integral           1     'h0                                          
  prdata                       integral           32    'h0                                          
  pwdata                       integral           32    'hacaf27f8                                   
  pslverr                      integral           1     'h0                                          
  apb_state                    apb_state_e        2     ""                                           
  begin_time                   time               64    275                                          
  depth                        int                32    'd2                                          
  parent sequence (name)       string             7     error_h                                      
  parent sequence (full name)  string             45    uvm_test_top.env_h.act_agent_h.seqr_h.error_h
  sequencer                    string             37    uvm_test_top.env_h.act_agent_h.seqr_h        
-----------------------------------------------------------------------------------------------------

UVM_INFO apb_driver.sv(61) @ 275: uvm_test_top.env_h.act_agent_h.drv_h [[DRV]] Entered SETUP State
UVM_INFO apb_score_board.sv(48) @ 280: uvm_test_top.env_h.sb_h [[SB]] [ACTIVE] paddr=0x0 pwrite=0 pwdata=0x0 prdata=0x0 pslverr=0
UVM_INFO apb_active_monitor.sv(44) @ 280: uvm_test_top.env_h.act_agent_h.act_mon_h [[ACTIVE_MON]] setup detected:::::- ------------------------------------------------------
Name               Type               Size  Value     
------------------------------------------------------
seq_h              apb_sequence_item  -     @1402     
  psel             integral           1     'h1       
  continuous_psel  integral           1     'h0       
  penable          integral           1     'h0       
  pready           integral           1     'h1       
  paddr            integral           32    'hffffffff
  pwrite           integral           1     'h0       
  prdata           integral           32    'h0       
  pwdata           integral           32    'hacaf27f8
  pslverr          integral           1     'h0       
  apb_state        apb_state_e        2     IDLE      
------------------------------------------------------

UVM_INFO apb_score_board.sv(48) @ 280: uvm_test_top.env_h.sb_h [[SB]] [ACTIVE] paddr=0xffffffff pwrite=0 pwdata=0xacaf27f8 prdata=0x0 pslverr=0
UVM_INFO apb_score_board.sv(58) @ 280: uvm_test_top.env_h.sb_h [[SB]] [PASSIVE] paddr=0x0 pwrite=0 pwdata=0x0 prdata=0x0 pslverr=0
UVM_WARNING apb_score_board.sv(147) @ 280: uvm_test_top.env_h.sb_h [[SB]] [280] READ from uninitialised addr 0x0 --- no ref
UVM_INFO apb_passive_monitor.sv(44) @ 280: uvm_test_top.env_h.pas_agent_h.pas_mon_h [[PASSIVE_MON]] setup detected:::::- ------------------------------------------------------
Name               Type               Size  Value     
------------------------------------------------------
seq_h              apb_sequence_item  -     @1428     
  psel             integral           1     'h1       
  continuous_psel  integral           1     'h0       
  penable          integral           1     'h0       
  pready           integral           1     'h1       
  paddr            integral           32    'hffffffff
  pwrite           integral           1     'h0       
  prdata           integral           32    'h0       
  pwdata           integral           32    'hacaf27f8
  pslverr          integral           1     'h0       
  apb_state        apb_state_e        2     IDLE      
------------------------------------------------------

UVM_INFO apb_score_board.sv(58) @ 280: uvm_test_top.env_h.sb_h [[SB]] [PASSIVE] paddr=0xffffffff pwrite=0 pwdata=0xacaf27f8 prdata=0x0 pslverr=0
UVM_WARNING apb_score_board.sv(147) @ 280: uvm_test_top.env_h.sb_h [[SB]] [280] READ from uninitialised addr 0xffffffff --- no ref
UVM_INFO apb_driver.sv(80) @ 285: uvm_test_top.env_h.act_agent_h.drv_h [[DRV]] Entered ACCESS State
UVM_INFO apb_score_board.sv(48) @ 290: uvm_test_top.env_h.sb_h [[SB]] [ACTIVE] paddr=0xffffffff pwrite=0 pwdata=0xacaf27f8 prdata=0x0 pslverr=0
UVM_INFO apb_score_board.sv(48) @ 290: uvm_test_top.env_h.sb_h [[SB]] [ACTIVE] paddr=0xffffffff pwrite=0 pwdata=0xacaf27f8 prdata=0x0 pslverr=1
UVM_INFO apb_active_monitor.sv(69) @ 290: uvm_test_top.env_h.act_agent_h.act_mon_h [[ACTIVE_MON]]  Transaction sent to scoreboard
UVM_INFO apb_score_board.sv(58) @ 290: uvm_test_top.env_h.sb_h [[SB]] [PASSIVE] paddr=0xffffffff pwrite=0 pwdata=0xacaf27f8 prdata=0x0 pslverr=0
UVM_WARNING apb_score_board.sv(147) @ 290: uvm_test_top.env_h.sb_h [[SB]] [290] READ from uninitialised addr 0xffffffff --- no ref
UVM_INFO apb_score_board.sv(58) @ 290: uvm_test_top.env_h.sb_h [[SB]] [PASSIVE] paddr=0xffffffff pwrite=0 pwdata=0xacaf27f8 prdata=0x0 pslverr=1
UVM_ERROR apb_score_board.sv(81) @ 290: uvm_test_top.env_h.sb_h [[SB]] [290] SLAVE ERROR:paddr=0xffffffff pwrite =0x0 act_pslverr=1 pas_pslverr=1
UVM_INFO apb_passive_monitor.sv(69) @ 290: uvm_test_top.env_h.pas_agent_h.pas_mon_h [[PASSIVE_MON]]  Transaction sent to scoreboard
UVM_INFO apb_driver.sv(108) @ 295: uvm_test_top.env_h.act_agent_h.drv_h [[DRV]] Pready occured at wait_count=0 4294967295 2897160184
UVM_INFO apb_driver.sv(112) @ 305: uvm_test_top.env_h.act_agent_h.drv_h [[DRV]] Transaction completed
UVM_INFO apb_driver.sv(121) @ 305: uvm_test_top.env_h.act_agent_h.drv_h [[abc1]] Transaction completed
UVM_INFO apb_driver.sv(122) @ 305: uvm_test_top.env_h.act_agent_h.drv_h [[abc1]]  0
UVM_INFO apb_error_seq.sv(30) @ 315: uvm_test_top.env_h.act_agent_h.seqr_h@@error_h [apb_error_seq] Dispalying From apb_error_seq=-----------------------------------------------------------------------------------------------------
Name                           Type               Size  Value                                        
-----------------------------------------------------------------------------------------------------
seq_h                          apb_sequence_item  -     @1516                                        
  psel                         integral           1     'h0                                          
  continuous_psel              integral           1     'h0                                          
  penable                      integral           1     'h0                                          
  pready                       integral           1     'h0                                          
  paddr                        integral           32    'hffffffff                                   
  pwrite                       integral           1     'h0                                          
  prdata                       integral           32    'h0                                          
  pwdata                       integral           32    'hd44de9e0                                   
  pslverr                      integral           1     'h0                                          
  apb_state                    apb_state_e        2     ""                                           
  begin_time                   time               64    315                                          
  depth                        int                32    'd2                                          
  parent sequence (name)       string             7     error_h                                      
  parent sequence (full name)  string             45    uvm_test_top.env_h.act_agent_h.seqr_h.error_h
  sequencer                    string             37    uvm_test_top.env_h.act_agent_h.seqr_h        
-----------------------------------------------------------------------------------------------------

UVM_INFO apb_driver.sv(48) @ 315: uvm_test_top.env_h.act_agent_h.drv_h [DRIVER] Displaying from apb_driver=-----------------------------------------------------------------------------------------------------
Name                           Type               Size  Value                                        
-----------------------------------------------------------------------------------------------------
seq_h                          apb_sequence_item  -     @1516                                        
  psel                         integral           1     'h0                                          
  continuous_psel              integral           1     'h0                                          
  penable                      integral           1     'h0                                          
  pready                       integral           1     'h0                                          
  paddr                        integral           32    'hffffffff                                   
  pwrite                       integral           1     'h0                                          
  prdata                       integral           32    'h0                                          
  pwdata                       integral           32    'hd44de9e0                                   
  pslverr                      integral           1     'h0                                          
  apb_state                    apb_state_e        2     ""                                           
  begin_time                   time               64    315                                          
  depth                        int                32    'd2                                          
  parent sequence (name)       string             7     error_h                                      
  parent sequence (full name)  string             45    uvm_test_top.env_h.act_agent_h.seqr_h.error_h
  sequencer                    string             37    uvm_test_top.env_h.act_agent_h.seqr_h        
-----------------------------------------------------------------------------------------------------

UVM_INFO apb_driver.sv(61) @ 315: uvm_test_top.env_h.act_agent_h.drv_h [[DRV]] Entered SETUP State
UVM_INFO apb_score_board.sv(48) @ 320: uvm_test_top.env_h.sb_h [[SB]] [ACTIVE] paddr=0x0 pwrite=0 pwdata=0x0 prdata=0x0 pslverr=0
UVM_INFO apb_active_monitor.sv(44) @ 320: uvm_test_top.env_h.act_agent_h.act_mon_h [[ACTIVE_MON]] setup detected:::::- ------------------------------------------------------
Name               Type               Size  Value     
------------------------------------------------------
seq_h              apb_sequence_item  -     @1530     
  psel             integral           1     'h1       
  continuous_psel  integral           1     'h0       
  penable          integral           1     'h0       
  pready           integral           1     'h0       
  paddr            integral           32    'hffffffff
  pwrite           integral           1     'h0       
  prdata           integral           32    'h0       
  pwdata           integral           32    'hd44de9e0
  pslverr          integral           1     'h0       
  apb_state        apb_state_e        2     IDLE      
------------------------------------------------------

UVM_INFO apb_score_board.sv(48) @ 320: uvm_test_top.env_h.sb_h [[SB]] [ACTIVE] paddr=0xffffffff pwrite=0 pwdata=0xd44de9e0 prdata=0x0 pslverr=0
UVM_INFO apb_score_board.sv(58) @ 320: uvm_test_top.env_h.sb_h [[SB]] [PASSIVE] paddr=0x0 pwrite=0 pwdata=0x0 prdata=0x0 pslverr=0
UVM_WARNING apb_score_board.sv(147) @ 320: uvm_test_top.env_h.sb_h [[SB]] [320] READ from uninitialised addr 0x0 --- no ref
UVM_INFO apb_passive_monitor.sv(44) @ 320: uvm_test_top.env_h.pas_agent_h.pas_mon_h [[PASSIVE_MON]] setup detected:::::- ------------------------------------------------------
Name               Type               Size  Value     
------------------------------------------------------
seq_h              apb_sequence_item  -     @1556     
  psel             integral           1     'h1       
  continuous_psel  integral           1     'h0       
  penable          integral           1     'h0       
  pready           integral           1     'h0       
  paddr            integral           32    'hffffffff
  pwrite           integral           1     'h0       
  prdata           integral           32    'h0       
  pwdata           integral           32    'hd44de9e0
  pslverr          integral           1     'h0       
  apb_state        apb_state_e        2     IDLE      
------------------------------------------------------

UVM_INFO apb_score_board.sv(58) @ 320: uvm_test_top.env_h.sb_h [[SB]] [PASSIVE] paddr=0xffffffff pwrite=0 pwdata=0xd44de9e0 prdata=0x0 pslverr=0
UVM_WARNING apb_score_board.sv(147) @ 320: uvm_test_top.env_h.sb_h [[SB]] [320] READ from uninitialised addr 0xffffffff --- no ref
UVM_INFO apb_driver.sv(80) @ 325: uvm_test_top.env_h.act_agent_h.drv_h [[DRV]] Entered ACCESS State
UVM_INFO apb_score_board.sv(48) @ 330: uvm_test_top.env_h.sb_h [[SB]] [ACTIVE] paddr=0xffffffff pwrite=0 pwdata=0xd44de9e0 prdata=0x0 pslverr=0
UVM_INFO apb_score_board.sv(58) @ 330: uvm_test_top.env_h.sb_h [[SB]] [PASSIVE] paddr=0xffffffff pwrite=0 pwdata=0xd44de9e0 prdata=0x0 pslverr=0
UVM_WARNING apb_score_board.sv(147) @ 330: uvm_test_top.env_h.sb_h [[SB]] [330] READ from uninitialised addr 0xffffffff --- no ref
UVM_INFO apb_driver.sv(108) @ 335: uvm_test_top.env_h.act_agent_h.drv_h [[DRV]] Pready occured at wait_count=0 4294967295 3561875936
UVM_INFO apb_score_board.sv(48) @ 340: uvm_test_top.env_h.sb_h [[SB]] [ACTIVE] paddr=0xffffffff pwrite=0 pwdata=0xd44de9e0 prdata=0x0 pslverr=1
UVM_INFO apb_active_monitor.sv(69) @ 340: uvm_test_top.env_h.act_agent_h.act_mon_h [[ACTIVE_MON]]  Transaction sent to scoreboard
UVM_INFO apb_score_board.sv(58) @ 340: uvm_test_top.env_h.sb_h [[SB]] [PASSIVE] paddr=0xffffffff pwrite=0 pwdata=0xd44de9e0 prdata=0x0 pslverr=1
UVM_ERROR apb_score_board.sv(81) @ 340: uvm_test_top.env_h.sb_h [[SB]] [340] SLAVE ERROR:paddr=0xffffffff pwrite =0x0 act_pslverr=1 pas_pslverr=1
UVM_INFO apb_passive_monitor.sv(69) @ 340: uvm_test_top.env_h.pas_agent_h.pas_mon_h [[PASSIVE_MON]]  Transaction sent to scoreboard
UVM_INFO apb_driver.sv(112) @ 345: uvm_test_top.env_h.act_agent_h.drv_h [[DRV]] Transaction completed
UVM_INFO apb_driver.sv(121) @ 345: uvm_test_top.env_h.act_agent_h.drv_h [[abc1]] Transaction completed
UVM_INFO apb_driver.sv(122) @ 345: uvm_test_top.env_h.act_agent_h.drv_h [[abc1]]  0
UVM_INFO apb_error_seq.sv(30) @ 355: uvm_test_top.env_h.act_agent_h.seqr_h@@error_h [apb_error_seq] Dispalying From apb_error_seq=-----------------------------------------------------------------------------------------------------
Name                           Type               Size  Value                                        
-----------------------------------------------------------------------------------------------------
seq_h                          apb_sequence_item  -     @1644                                        
  psel                         integral           1     'h0                                          
